EC-Lab ASCII FILE
Nb header lines : 65                          

Potentio Electrochemical Impedance Spectroscopy

Run on channel : 1 (SN 6813)
User : 
CE vs. WE compliance from -10 V to 10 V
Electrode connection : standard
Potential control : Ewe
Ewe ctrl range : min = -1.00 V, max = 1.00 V
Safety Limits :
	Do not start on E overload
Acquisition started on : 02/16/2024 15:10:14.433
Technique started on : 02/16/2024 15:10:15.973
Loaded Setting File :  NONE
Saved on :
	File : 07 2EL413 RVC EtOH TBA-BF4_(under Ar) solidstateref+faradaiccage EIS 0-1.mpr
	Directory : C:\Users\VSP\Documents\EC-Lab\Data\Louis\2024 02 16\
	Host : 10.10.11.222
Device : VSP (SN 0301)
Address : USB
EC-Lab for windows v11.50 (software)
Internet server v11.50 (firmware)
Command interpretor v11.50 (firmware)
Electrode material : 
Initial state : 
Electrolyte : 
Comments : 
Current amplifier : Low Current
Electrode surface area : 0.001 cm²
Characteristic mass : 0.001 g
Equivalent Weight : 0.000 g/eq.
Density : 0.000 g/cm3
Volume (V) : 0.001 cm³
Cycle Definition : Charge/Discharge alternance
Mode                Single sine         
E (V)               0.1000              
vs.                 Eoc                 
tE (h:m:s)          0:00:0.0000         
record              0                   
dI                  0.000               
unit dI             mA                  
dt (s)              0.000               
fi                  1.000               
unit fi             MHz                 
ff                  0.100               
unit ff             Hz                  
Nd                  50                  
Points              from fi to ff       
spacing             Logarithmic         
Va (mV)             10.0                
pw                  0.10                
Na                  3                   
corr                0                   
E range min (V)     -1.000              
E range max (V)     1.000               
I Range             Auto                
Bandwidth           4                   
nc cycles           0                   
goto Ns'            0                   
nr cycles           0                   
inc. cycle          0                   

freq/Hz	Re(Z)/Ohm	-Im(Z)/Ohm	|Z|/Ohm	Phase(Z)/deg	time/s	<Ewe>/V	<I>/mA	Cs/µF	Cp/µF	cycle number	I Range	|Ewe|/V	|I|/A	Ns	(Q-Qo)/mA.h	Re(Y)/Ohm-1	Im(Y)/Ohm-1	|Y|/Ohm-1	Phase(Y)/deg	Re(C)/nF	Im(C)/nF	|C|/nF	Phase(C)/deg	Re(M)	Im(M)	|M|	Phase(M)/deg	Re(Permittivity)	Im(Permittivity)	|Permittivity|	Phase(Permittivity)/deg	Re(Resistivity)/Ohm.cm	Im(Resistivity)/Ohm.cm	|Resistivity|/Ohm.cm	Phase(Resistivity)/deg	Re(Conductivity)/mS/cm	Im(Conductivity)/mS/cm	|Conductivity|/mS/cm	Phase(Conductivity)/deg	Tan(Delta)	Loss Angle(Delta)/deg	dq/mA.h	
1.0000186E+006	-3.0310553E+002	-1.1488229E+002	3.2414642E+002	1.5924242E+002	02/16/2024 15:10:15.9727	1.7706330E-001	2.7036616E-003	-1.3853484E-003	-1.7401339E-004	1.000000000000000E+000	12	1.1792744E-003	3.6380918E-006	0	1.855992055962209E-006	-2.8847714E-003	-1.0933788E-003	3.0850256E-003	-1.5924242E+002	-1.7401339E-001	-4.5911705E-001	4.9098793E-001	1.1075758E+002	0.0000000E+000	0.0000000E+000	0.0000000E+000	-1.1075758E+002	0.0000000E+000	0.0000000E+000	0.0000000E+000	1.1075758E+002	0.0000000E+000	0.0000000E+000	0.0000000E+000	1.5924242E+002	0.0000000E+000	0.0000000E+000	0.0000000E+000	-1.5924242E+002	2.6384010E+000	6.9242416E+001	1.855992055962209E-006
7.1968713E+005	-2.1793698E+002	3.7000674E+002	4.2941998E+002	-1.2049843E+002	02/16/2024 15:10:16.5517	1.7755409E-001	2.0867579E-003	5.9767731E-004	4.4373280E-004	1.000000000000000E+000	12	1.3068211E-003	3.0432238E-006	0	2.265077585582630E-006	-1.1818609E-003	2.0065277E-003	2.3287225E-003	1.2049843E+002	4.4373283E-001	-2.6136222E-001	5.1498449E-001	3.0498428E+001	0.0000000E+000	0.0000000E+000	0.0000000E+000	-3.0498428E+001	0.0000000E+000	0.0000000E+000	0.0000000E+000	3.0498428E+001	0.0000000E+000	0.0000000E+000	0.0000000E+000	-1.2049843E+002	0.0000000E+000	0.0000000E+000	0.0000000E+000	1.2049843E+002	5.8900815E-001	3.0498428E+001	4.090855296204205E-007
5.1794463E+005	4.8429226E+001	1.5990077E+002	1.6707378E+002	-7.3149986E+001	02/16/2024 15:10:18.1127	1.7771375E-001	2.5208017E-003	1.9217028E-003	1.7602355E-003	1.000000000000000E+000	11	2.7379745E-003	1.6387818E-005	0	4.166432885840398E-006	1.7349661E-003	5.7284082E-003	5.9853797E-003	7.3149986E+001	1.7602355E+000	5.3312343E-001	1.8391981E+000	-1.6850014E+001	0.0000000E+000	0.0000000E+000	0.0000000E+000	1.6850014E+001	0.0000000E+000	0.0000000E+000	0.0000000E+000	-1.6850014E+001	0.0000000E+000	0.0000000E+000	0.0000000E+000	-7.3149986E+001	0.0000000E+000	0.0000000E+000	0.0000000E+000	7.3149986E+001	3.0287048E-001	1.6850006E+001	1.901355300257769E-006
3.7276388E+005	8.8170807E+001	1.2423792E+002	1.5234550E+002	-5.4636936E+001	02/16/2024 15:10:18.6917	1.7767534E-001	2.2378028E-003	3.4366250E-003	2.2854998E-003	1.000000000000000E+000	11	4.2800913E-003	2.8094633E-005	0	4.537758409706132E-006	3.7989672E-003	5.3529711E-003	6.5640272E-003	5.4636936E+001	2.2854998E+000	1.6220038E+000	2.8025713E+000	-3.5363064E+001	0.0000000E+000	0.0000000E+000	0.0000000E+000	3.5363064E+001	0.0000000E+000	0.0000000E+000	0.0000000E+000	-3.5363064E+001	0.0000000E+000	0.0000000E+000	0.0000000E+000	-5.4636936E+001	0.0000000E+000	0.0000000E+000	0.0000000E+000	5.4636936E+001	7.0969319E-001	3.5363068E+001	3.713255238657334E-007
2.6826938E+005	9.8867096E+001	1.0780322E+002	1.4627452E+002	-4.7475842E+001	02/16/2024 15:10:19.2707	1.7756449E-001	1.8097571E-003	5.5032251E-003	2.9891201E-003	1.000000000000000E+000	11	6.3880761E-003	4.3671829E-005	0	4.581357639281678E-006	4.6207705E-003	5.0384193E-003	6.8364604E-003	4.7475842E+001	2.9891202E+000	2.7413435E+000	4.0558357E+000	-4.2524158E+001	0.0000000E+000	0.0000000E+000	0.0000000E+000	4.2524158E+001	0.0000000E+000	0.0000000E+000	0.0000000E+000	-4.2524158E+001	0.0000000E+000	0.0000000E+000	0.0000000E+000	-4.7475842E+001	0.0000000E+000	0.0000000E+000	0.0000000E+000	4.7475842E+001	9.1710711E-001	4.2524155E+001	4.359922957554656E-008
1.9306711E+005	1.1080644E+002	1.0301939E+002	1.5129793E+002	-4.2914337E+001	02/16/2024 15:10:19.7017	1.7751940E-001	1.6830048E-003	8.0018956E-003	3.7099225E-003	1.000000000000000E+000	11	9.8042246E-003	6.4800784E-005	0	4.847105692191083E-006	4.8405984E-003	4.5004194E-003	6.6094757E-003	4.2914337E+001	3.7099226E+000	3.9903493E+000	5.4485240E+000	-4.7085663E+001	0.0000000E+000	0.0000000E+000	0.0000000E+000	4.7085663E+001	0.0000000E+000	0.0000000E+000	0.0000000E+000	-4.7085663E+001	0.0000000E+000	0.0000000E+000	0.0000000E+000	-4.2914337E+001	0.0000000E+000	0.0000000E+000	0.0000000E+000	4.2914337E+001	1.0755882E+000	4.7085663E+001	2.657480529094052E-007
1.3894559E+005	1.2564455E+002	1.0396218E+002	1.6307878E+002	-3.9605404E+001	02/16/2024 15:10:20.2807	1.7755893E-001	1.6699375E-003	1.1017929E-002	4.4777086E-003	1.000000000000000E+000	11	1.0509648E-002	6.4445223E-005	0	4.924615955744230E-006	4.7244229E-003	3.9091334E-003	6.1320057E-003	3.9605404E+001	4.4777083E+000	5.4115806E+000	7.0238934E+000	-5.0394596E+001	0.0000000E+000	0.0000000E+000	0.0000000E+000	5.0394596E+001	0.0000000E+000	0.0000000E+000	0.0000000E+000	-5.0394596E+001	0.0000000E+000	0.0000000E+000	0.0000000E+000	-3.9605404E+001	0.0000000E+000	0.0000000E+000	0.0000000E+000	3.9605404E+001	1.2085602E+000	5.0394592E+001	7.751026355314657E-008
1.0000371E+005	1.4361443E+002	1.0957282E+002	1.8064137E+002	-3.7342377E+001	02/16/2024 15:10:20.8597	1.7757632E-001	1.9456567E-003	1.4524499E-002	5.3440733E-003	1.000000000000000E+000	11	1.0702766E-002	5.9248701E-005	0	4.702295772692802E-006	4.4011236E-003	3.3579050E-003	5.5358303E-003	3.7342377E+001	5.3440733E+000	7.0043464E+000	8.8102207E+000	-5.2657623E+001	0.0000000E+000	0.0000000E+000	0.0000000E+000	5.2657623E+001	0.0000000E+000	0.0000000E+000	0.0000000E+000	-5.2657623E+001	0.0000000E+000	0.0000000E+000	0.0000000E+000	-3.7342377E+001	0.0000000E+000	0.0000000E+000	0.0000000E+000	3.7342377E+001	1.3106756E+000	5.2657623E+001	-2.223201830514281E-007
7.1964070E+004	1.6649731E+002	1.1617160E+002	2.0302019E+002	-3.4904968E+001	02/16/2024 15:10:21.4387	1.7759439E-001	2.0317140E-003	1.9037260E-002	6.2334132E-003	1.000000000000000E+000	11	1.0714922E-002	5.2777617E-005	0	4.833303194974481E-006	4.0395106E-003	2.8185225E-003	4.9256184E-003	3.4904968E+001	6.2334132E+000	8.9337378E+000	1.0893443E+001	-5.5095032E+001	0.0000000E+000	0.0000000E+000	0.0000000E+000	5.5095032E+001	0.0000000E+000	0.0000000E+000	0.0000000E+000	-5.5095032E+001	0.0000000E+000	0.0000000E+000	0.0000000E+000	-3.4904968E+001	0.0000000E+000	0.0000000E+000	0.0000000E+000	3.4904968E+001	1.4332016E+000	5.5095032E+001	1.310074222816792E-007
5.1792605E+004	1.9515092E+002	1.2291903E+002	2.3063602E+002	-3.2205452E+001	02/16/2024 15:10:22.0177	1.7759456E-001	1.7330337E-003	2.4999611E-002	7.1009630E-003	1.000000000000000E+000	11	1.0683902E-002	4.6323647E-005	0	5.421527022363180E-006	3.6687350E-003	2.3108132E-003	4.3358360E-003	3.2205452E+001	7.1009631E+000	1.1273759E+001	1.3323712E+001	-5.7794548E+001	0.0000000E+000	0.0000000E+000	0.0000000E+000	5.7794548E+001	0.0000000E+000	0.0000000E+000	0.0000000E+000	-5.7794548E+001	0.0000000E+000	0.0000000E+000	0.0000000E+000	-3.2205452E+001	0.0000000E+000	0.0000000E+000	0.0000000E+000	3.2205452E+001	1.5876380E+000	5.7794548E+001	5.882238273886990E-007
3.7271750E+004	2.2819569E+002	1.2603358E+002	2.6068704E+002	-2.8912081E+001	02/16/2024 15:10:22.5967	1.7759082E-001	1.4280063E-003	3.3880834E-002	7.9193171E-003	1.000000000000000E+000	11	1.0700190E-002	4.1046111E-005	0	5.583054935511528E-006	3.3579061E-003	1.8545877E-003	3.8360173E-003	2.8912081E+001	7.9193163E+000	1.4338671E+001	1.6380264E+001	-6.1087921E+001	0.0000000E+000	0.0000000E+000	0.0000000E+000	6.1087921E+001	0.0000000E+000	0.0000000E+000	0.0000000E+000	-6.1087921E+001	0.0000000E+000	0.0000000E+000	0.0000000E+000	-2.8912081E+001	0.0000000E+000	0.0000000E+000	0.0000000E+000	2.8912081E+001	1.8105944E+000	6.1087921E+001	1.615279131483476E-007
2.6824154E+004	2.6371588E+002	1.1992500E+002	2.8970343E+002	-2.4453703E+001	02/16/2024 15:10:23.1757	1.7762554E-001	1.4642213E-003	4.9474835E-002	8.4780613E-003	1.000000000000000E+000	11	1.0668068E-002	3.6824102E-005	0	6.045124605365547E-006	3.1421653E-003	1.4289020E-003	3.4518058E-003	2.4453703E+001	8.4780617E+000	1.8643314E+001	2.0480495E+001	-6.5546295E+001	0.0000000E+000	0.0000000E+000	0.0000000E+000	6.5546295E+001	0.0000000E+000	0.0000000E+000	0.0000000E+000	-6.5546295E+001	0.0000000E+000	0.0000000E+000	0.0000000E+000	-2.4453703E+001	0.0000000E+000	0.0000000E+000	0.0000000E+000	2.4453703E+001	2.1990066E+000	6.5546295E+001	4.620696698540195E-007
1.9308566E+004	2.9514597E+002	1.0645728E+002	3.1375833E+002	-1.9834053E+001	02/16/2024 15:10:23.7547	1.7760865E-001	1.7192194E-003	7.7427417E-002	8.9136371E-003	1.000000000000000E+000	11	1.0537407E-002	3.3584471E-005	0	6.586529397121517E-006	2.9981013E-003	1.0813961E-003	3.1871663E-003	1.9834053E+001	8.9136372E+000	2.4712484E+001	2.6270893E+001	-7.0165947E+001	0.0000000E+000	0.0000000E+000	0.0000000E+000	7.0165947E+001	0.0000000E+000	0.0000000E+000	0.0000000E+000	-7.0165947E+001	0.0000000E+000	0.0000000E+000	0.0000000E+000	-1.9834053E+001	0.0000000E+000	0.0000000E+000	0.0000000E+000	1.9834053E+001	2.7724357E+000	7.0165947E+001	5.414047917559698E-007
1.3899199E+004	3.1746912E+002	8.8798698E+001	3.2965414E+002	-1.5626739E+001	02/16/2024 15:10:24.3337	1.7763008E-001	1.8147971E-003	1.2895072E-001	9.3566393E-003	1.000000000000000E+000	11	1.0449153E-002	3.1697320E-005	0	6.888172225356546E-006	2.9213554E-003	8.1712689E-004	3.0334822E-003	1.5626739E+001	9.3566399E+000	3.3451439E+001	3.4735363E+001	-7.4373260E+001	0.0000000E+000	0.0000000E+000	0.0000000E+000	7.4373260E+001	0.0000000E+000	0.0000000E+000	0.0000000E+000	-7.4373260E+001	0.0000000E+000	0.0000000E+000	0.0000000E+000	-1.5626739E+001	0.0000000E+000	0.0000000E+000	0.0000000E+000	1.5626739E+001	3.5751550E+000	7.4373260E+001	3.016428282350285E-007
1.0002226E+004	3.3270169E+002	7.0410179E+001	3.4007059E+002	-1.1949283E+001	02/16/2024 15:10:24.9137	1.7761712E-001	1.6264418E-003	2.2598940E-001	9.6877022E-003	1.000000000000000E+000	11	1.0340825E-002	3.0407877E-005	0	7.161056344008317E-006	2.8768477E-003	6.0883176E-004	2.9405660E-003	1.1949283E+001	9.6877003E+000	4.5776268E+001	4.6790150E+001	-7.8050720E+001	0.0000000E+000	0.0000000E+000	0.0000000E+000	7.8050720E+001	0.0000000E+000	0.0000000E+000	0.0000000E+000	-7.8050720E+001	0.0000000E+000	0.0000000E+000	0.0000000E+000	-1.1949283E+001	0.0000000E+000	0.0000000E+000	0.0000000E+000	1.1949283E+001	4.7251930E+000	7.8050720E+001	2.728841186517713E-007
7.1953535E+003	3.4368851E+002	5.5214287E+001	3.4809540E+002	-9.1267042E+000	02/16/2024 15:10:25.6236	1.7764421E-001	1.3930979E-003	4.0060517E-001	1.0079127E-002	1.000000000000000E+000	11	1.0181502E-002	2.9249170E-005	0	7.236031791250854E-006	2.8364065E-003	4.5567469E-004	2.8727758E-003	9.1267042E+000	1.0079124E+001	6.2738838E+001	6.3543297E+001	-8.0873299E+001	0.0000000E+000	0.0000000E+000	0.0000000E+000	8.0873299E+001	0.0000000E+000	0.0000000E+000	0.0000000E+000	-8.0873299E+001	0.0000000E+000	0.0000000E+000	0.0000000E+000	-9.1267042E+000	0.0000000E+000	0.0000000E+000	0.0000000E+000	9.1267042E+000	6.2246299E+000	8.0873299E+001	7.497544724253656E-008
5.1814517E+003	3.5031076E+002	4.5429157E+001	3.5324417E+002	-7.3890190E+000	02/16/2024 15:10:26.5505	1.7761438E-001	1.4877422E-003	6.7613590E-001	1.1182872E-002	1.000000000000000E+000	11	1.0212178E-002	2.8909686E-005	0	7.587726973580099E-006	2.8073948E-003	3.6406980E-004	2.8309030E-003	7.3890190E+000	1.1182877E+001	8.6232727E+001	8.6954819E+001	-8.2610977E+001	0.0000000E+000	0.0000000E+000	0.0000000E+000	8.2610977E+001	0.0000000E+000	0.0000000E+000	0.0000000E+000	-8.2610977E+001	0.0000000E+000	0.0000000E+000	0.0000000E+000	-7.3890190E+000	0.0000000E+000	0.0000000E+000	0.0000000E+000	7.3890190E+000	7.7111435E+000	8.2610977E+001	3.516951823292451E-007
3.7264229E+003	3.5322357E+002	3.6958385E+001	3.5515182E+002	-5.9732208E+000	02/16/2024 15:10:27.2483	1.7763473E-001	1.4606742E-003	1.1556199E+000	1.2514482E-002	1.000000000000000E+000	11	1.0680242E-002	3.0072328E-005	0	7.869547830660370E-006	2.8004097E-003	2.9301166E-004	2.8156971E-003	5.9732208E+000	1.2514483E+001	1.1960507E+002	1.2025800E+002	-8.4026779E+001	0.0000000E+000	0.0000000E+000	0.0000000E+000	8.4026779E+001	0.0000000E+000	0.0000000E+000	0.0000000E+000	-8.4026779E+001	0.0000000E+000	0.0000000E+000	0.0000000E+000	-5.9732208E+000	0.0000000E+000	0.0000000E+000	0.0000000E+000	5.9732208E+000	9.5573320E+000	8.4026779E+001	2.818208570802709E-007
2.6824250E+003	3.5633871E+002	3.1550558E+001	3.5773276E+002	-5.0598264E+000	02/16/2024 15:10:27.9463	1.7763698E-001	1.4347265E-003	1.8805525E+000	1.4627906E-002	1.000000000000000E+000	11	1.0966121E-002	3.0654508E-005	0	8.026337070037925E-006	2.7844897E-003	2.4654128E-004	2.7953829E-003	5.0598264E+000	1.4627916E+001	1.6521069E+002	1.6585701E+002	-8.4940170E+001	0.0000000E+000	0.0000000E+000	0.0000000E+000	8.4940170E+001	0.0000000E+000	0.0000000E+000	0.0000000E+000	-8.4940170E+001	0.0000000E+000	0.0000000E+000	0.0000000E+000	-5.0598264E+000	0.0000000E+000	0.0000000E+000	0.0000000E+000	5.0598264E+000	1.1294212E+001	8.4940170E+001	1.567892393775552E-007
1.9306176E+003	3.6063162E+002	2.8107197E+001	3.6172528E+002	-4.4565554E+000	02/16/2024 15:10:29.1421	1.7761959E-001	5.0744263E-004	2.9329615E+000	1.7708579E-002	1.000000000000000E+000	12	9.4542112E-003	2.6136440E-005	0	8.387543531816290E-006	2.7561705E-003	2.1481262E-004	2.7645289E-003	4.4565554E+000	1.7708590E+001	2.2721132E+002	2.2790036E+002	-8.5543442E+001	0.0000000E+000	0.0000000E+000	0.0000000E+000	8.5543442E+001	0.0000000E+000	0.0000000E+000	0.0000000E+000	-8.5543442E+001	0.0000000E+000	0.0000000E+000	0.0000000E+000	-4.4565554E+000	0.0000000E+000	0.0000000E+000	0.0000000E+000	4.4565554E+000	1.2830580E+001	8.5543442E+001	3.612064617783653E-007
1.3886667E+003	3.6569696E+002	2.6198769E+001	3.6663422E+002	-4.0977063E+000	02/16/2024 15:10:29.8404	1.7764874E-001	5.2042934E-004	4.3746285E+000	2.2337623E-002	1.000000000000000E+000	12	9.8612998E-003	2.6896834E-005	0	8.558913566711048E-006	2.7205416E-003	1.9490138E-004	2.7275141E-003	4.0977063E+000	2.2337645E+001	3.1180096E+002	3.1260010E+002	-8.5902290E+001	0.0000000E+000	0.0000000E+000	0.0000000E+000	8.5902290E+001	0.0000000E+000	0.0000000E+000	0.0000000E+000	-8.5902290E+001	0.0000000E+000	0.0000000E+000	0.0000000E+000	-4.0977063E+000	0.0000000E+000	0.0000000E+000	0.0000000E+000	4.0977063E+000	1.3958555E+001	8.5902290E+001	1.713700348947583E-007
1.0003202E+003	3.6570209E+002	2.7344526E+001	3.6672296E+002	-4.2762017E+000	02/16/2024 15:10:30.5371	1.7761338E-001	4.8462275E-004	5.8184953E+000	3.2350074E-002	1.000000000000000E+000	12	9.9984044E-003	2.7264190E-005	0	8.676918434196067E-006	2.7192631E-003	2.0332659E-004	2.7268541E-003	4.2762017E+000	3.2350060E+001	4.3264566E+002	4.3385342E+002	-8.5723801E+001	0.0000000E+000	0.0000000E+000	0.0000000E+000	8.5723801E+001	0.0000000E+000	0.0000000E+000	0.0000000E+000	-8.5723801E+001	0.0000000E+000	0.0000000E+000	0.0000000E+000	-4.2762017E+000	0.0000000E+000	0.0000000E+000	0.0000000E+000	4.2762017E+000	1.3373868E+001	8.5723801E+001	1.180048674850191E-007
7.1930957E+002	3.7022360E+002	2.8718527E+001	3.7133578E+002	-4.4355950E+000	02/16/2024 15:10:31.2353	1.7763238E-001	4.8089100E-004	7.7044587E+000	4.6082165E-002	1.000000000000000E+000	12	1.0130865E-002	2.7282222E-005	0	8.886838626967852E-006	2.6849147E-003	2.0827088E-004	2.6929805E-003	4.4355950E+000	4.6082134E+001	5.9406610E+002	5.9585071E+002	-8.5564407E+001	0.0000000E+000	0.0000000E+000	0.0000000E+000	8.5564407E+001	0.0000000E+000	0.0000000E+000	0.0000000E+000	-8.5564407E+001	0.0000000E+000	0.0000000E+000	0.0000000E+000	-4.4355950E+000	0.0000000E+000	0.0000000E+000	0.0000000E+000	4.4355950E+000	1.2891456E+001	8.5564407E+001	2.099201927717841E-007
5.1817603E+002	3.7371826E+002	3.3151154E+001	3.7518573E+002	-5.0692263E+000	02/16/2024 15:10:31.9349	1.7764559E-001	4.9550092E-004	9.2649736E+000	7.2335057E-002	1.000000000000000E+000	12	1.0175030E-002	2.7119981E-005	0	9.057465672467944E-006	2.6549215E-003	2.3550817E-004	2.6653465E-003	5.0692263E+000	7.2335091E+001	8.1544464E+002	8.1864667E+002	-8.4930771E+001	0.0000000E+000	0.0000000E+000	0.0000000E+000	8.4930771E+001	0.0000000E+000	0.0000000E+000	0.0000000E+000	-8.4930771E+001	0.0000000E+000	0.0000000E+000	0.0000000E+000	-5.0692263E+000	0.0000000E+000	0.0000000E+000	0.0000000E+000	5.0692263E+000	1.1273160E+001	8.4930771E+001	1.706270455000928E-007
3.7273376E+002	3.7812314E+002	3.6215870E+001	3.7985352E+002	-5.4709859E+000	02/16/2024 15:10:32.6344	1.7763945E-001	4.8204782E-004	1.1790236E+001	1.0717365E-001	1.000000000000000E+000	12	1.0192078E-002	2.6831600E-005	0	9.158453268785150E-006	2.6206013E-003	2.5099592E-004	2.6325937E-003	5.4709859E+000	1.0717365E+002	1.1189801E+003	1.1241008E+003	-8.4529015E+001	0.0000000E+000	0.0000000E+000	0.0000000E+000	8.4529015E+001	0.0000000E+000	0.0000000E+000	0.0000000E+000	-8.4529015E+001	0.0000000E+000	0.0000000E+000	0.0000000E+000	-5.4709859E+000	0.0000000E+000	0.0000000E+000	0.0000000E+000	5.4709859E+000	1.0440813E+001	8.4529015E+001	1.009875963172061E-007
2.6836835E+002	3.8393414E+002	4.2971455E+001	3.8633142E+002	-6.3861961E+000	02/16/2024 15:10:33.3354	1.7762822E-001	4.9061229E-004	1.3800944E+001	1.7074533E-001	1.000000000000000E+000	12	1.0210533E-002	2.6429465E-005	0	9.167601105462735E-006	2.5723891E-003	2.8791215E-004	2.5884511E-003	6.3861961E+000	1.7074545E+002	1.5255469E+003	1.5350724E+003	-8.3613800E+001	0.0000000E+000	0.0000000E+000	0.0000000E+000	8.3613800E+001	0.0000000E+000	0.0000000E+000	0.0000000E+000	-8.3613800E+001	0.0000000E+000	0.0000000E+000	0.0000000E+000	-6.3861961E+000	0.0000000E+000	0.0000000E+000	0.0000000E+000	6.3861961E+000	8.9346323E+000	8.3613800E+001	9.147836677584785E-009
