EC-Lab ASCII FILE
Nb header lines : 65                          

Potentio Electrochemical Impedance Spectroscopy

Run on channel : 1 (SN 6813)
User : 
CE vs. WE compliance from -10 V to 10 V
Electrode connection : standard
Potential control : Ewe
Ewe ctrl range : min = -1.00 V, max = 1.00 V
Safety Limits :
	Do not start on E overload
Acquisition started on : 02/16/2024 15:13:05.052
Technique started on : 02/16/2024 15:13:06.591
Loaded Setting File :  NONE
Saved on :
	File : 08 2EL413 RVC EtOH TBA-BF4_(under Ar) solidstateref+faradaiccage EIS 0-2.mpr
	Directory : C:\Users\VSP\Documents\EC-Lab\Data\Louis\2024 02 16\
	Host : 10.10.11.222
Device : VSP (SN 0301)
Address : USB
EC-Lab for windows v11.50 (software)
Internet server v11.50 (firmware)
Command interpretor v11.50 (firmware)
Electrode material : 
Initial state : 
Electrolyte : 
Comments : 
Current amplifier : Low Current
Electrode surface area : 0.001 cm²
Characteristic mass : 0.001 g
Equivalent Weight : 0.000 g/eq.
Density : 0.000 g/cm3
Volume (V) : 0.001 cm³
Cycle Definition : Charge/Discharge alternance
Mode                Single sine         
E (V)               0.2000              
vs.                 Eoc                 
tE (h:m:s)          0:00:0.0000         
record              0                   
dI                  0.000               
unit dI             mA                  
dt (s)              0.000               
fi                  1.000               
unit fi             MHz                 
ff                  0.100               
unit ff             Hz                  
Nd                  50                  
Points              from fi to ff       
spacing             Logarithmic         
Va (mV)             10.0                
pw                  0.10                
Na                  3                   
corr                0                   
E range min (V)     -1.000              
E range max (V)     1.000               
I Range             Auto                
Bandwidth           4                   
nc cycles           0                   
goto Ns'            0                   
nr cycles           0                   
inc. cycle          0                   

freq/Hz	Re(Z)/Ohm	-Im(Z)/Ohm	|Z|/Ohm	Phase(Z)/deg	time/s	<Ewe>/V	<I>/mA	Cs/µF	Cp/µF	cycle number	I Range	|Ewe|/V	|I|/A	Ns	(Q-Qo)/mA.h	Re(Y)/Ohm-1	Im(Y)/Ohm-1	|Y|/Ohm-1	Phase(Y)/deg	Re(C)/nF	Im(C)/nF	|C|/nF	Phase(C)/deg	Re(M)	Im(M)	|M|	Phase(M)/deg	Re(Permittivity)	Im(Permittivity)	|Permittivity|	Phase(Permittivity)/deg	Re(Resistivity)/Ohm.cm	Im(Resistivity)/Ohm.cm	|Resistivity|/Ohm.cm	Phase(Resistivity)/deg	Re(Conductivity)/mS/cm	Im(Conductivity)/mS/cm	|Conductivity|/mS/cm	Phase(Conductivity)/deg	Tan(Delta)	Loss Angle(Delta)/deg	dq/mA.h	
1.0000186E+006	-1.5017326E+002	3.8588367E+002	4.1407513E+002	-1.1126436E+002	02/16/2024 15:13:06.5907	3.5123309E-001	1.0987638E-002	4.1243515E-004	3.5818727E-004	1.000000000000000E+000	11	1.2692913E-003	3.0653646E-006	0	5.151832442373739E-006	-8.7585940E-004	2.2505990E-003	2.4150207E-003	1.1126436E+002	3.5818732E-001	-1.3939478E-001	3.8435537E-001	2.1264359E+001	0.0000000E+000	0.0000000E+000	0.0000000E+000	-2.1264359E+001	0.0000000E+000	0.0000000E+000	0.0000000E+000	2.1264359E+001	0.0000000E+000	0.0000000E+000	0.0000000E+000	-1.1126436E+002	0.0000000E+000	0.0000000E+000	0.0000000E+000	1.1126436E+002	3.8916719E-001	2.1264359E+001	5.151832442373739E-006
7.1968713E+005	1.4927870E+001	1.9382532E+002	1.9439932E+002	-8.5595940E+001	02/16/2024 15:13:07.1697	3.5171518E-001	9.4040735E-003	1.1409482E-003	1.1342203E-003	1.000000000000000E+000	11	1.6271210E-003	8.3699933E-006	0	6.668871508741075E-006	3.9501005E-004	5.1288619E-003	5.1440508E-003	8.5595940E+001	1.1342202E+000	8.7354347E-002	1.1375792E+000	-4.4040604E+000	0.0000000E+000	0.0000000E+000	0.0000000E+000	4.4040604E+000	0.0000000E+000	0.0000000E+000	0.0000000E+000	-4.4040604E+000	0.0000000E+000	0.0000000E+000	0.0000000E+000	-8.5595940E+001	0.0000000E+000	0.0000000E+000	0.0000000E+000	8.5595940E+001	7.7017128E-002	4.4040527E+000	1.517039066367336E-006
5.1794463E+005	4.8960285E+001	1.6115808E+002	1.6843111E+002	-7.3101067E+001	02/16/2024 15:13:07.7487	3.5189617E-001	8.2808500E-003	1.9067103E-003	1.7455983E-003	1.000000000000000E+000	11	2.7071664E-003	1.6072841E-005	0	7.938755410921153E-006	1.7258355E-003	5.6807739E-003	5.9371456E-003	7.3101067E+001	1.7455983E+000	5.3031784E-001	1.8243767E+000	-1.6898933E+001	0.0000000E+000	0.0000000E+000	0.0000000E+000	1.6898933E+001	0.0000000E+000	0.0000000E+000	0.0000000E+000	-1.6898933E+001	0.0000000E+000	0.0000000E+000	0.0000000E+000	-7.3101067E+001	0.0000000E+000	0.0000000E+000	0.0000000E+000	7.3101067E+001	3.0380285E-001	1.6898926E+001	1.269883902180077E-006
3.7276388E+005	8.9855782E+001	1.2637531E+002	1.5506380E+002	-5.4586288E+001	02/16/2024 15:13:08.3287	3.5186711E-001	7.2423760E-003	3.3785009E-003	2.2440252E-003	1.000000000000000E+000	11	4.2640045E-003	2.7498389E-005	0	9.196067697887580E-006	3.7370182E-003	5.2558314E-003	6.4489585E-003	5.4586288E+001	2.2440252E+000	1.5955541E+000	2.7534418E+000	-3.5413712E+001	0.0000000E+000	0.0000000E+000	0.0000000E+000	3.5413712E+001	0.0000000E+000	0.0000000E+000	0.0000000E+000	-3.5413712E+001	0.0000000E+000	0.0000000E+000	0.0000000E+000	-5.4586288E+001	0.0000000E+000	0.0000000E+000	0.0000000E+000	5.4586288E+001	7.1102321E-001	3.5413712E+001	1.257312286966428E-006
2.6826938E+005	1.0058501E+002	1.0813400E+002	1.4768312E+002	-4.7071381E+001	02/16/2024 15:13:08.9077	3.5174128E-001	6.5087429E-003	5.4863910E-003	2.9413693E-003	1.000000000000000E+000	11	6.3183862E-003	4.2783402E-005	0	1.021586322403709E-005	4.6118111E-003	4.9579311E-003	6.7712544E-003	4.7071381E+001	2.9413691E+000	2.7360280E+000	4.0171509E+000	-4.2928619E+001	0.0000000E+000	0.0000000E+000	0.0000000E+000	4.2928619E+001	0.0000000E+000	0.0000000E+000	0.0000000E+000	-4.2928619E+001	0.0000000E+000	0.0000000E+000	0.0000000E+000	-4.7071381E+001	0.0000000E+000	0.0000000E+000	0.0000000E+000	4.7071381E+001	9.3018860E-001	4.2928619E+001	1.019795526149512E-006
1.9306711E+005	1.1231258E+002	1.0294615E+002	1.5235493E+002	-4.2508495E+001	02/16/2024 15:13:09.3387	3.5172230E-001	6.1951289E-003	8.0075879E-003	3.6560229E-003	1.000000000000000E+000	11	9.6627567E-003	6.3422667E-005	0	1.082579265379293E-005	4.8385514E-003	4.4350354E-003	6.5636206E-003	4.2508495E+001	3.6560230E+000	3.9886615E+000	5.4107232E+000	-4.7491505E+001	0.0000000E+000	0.0000000E+000	0.0000000E+000	4.7491505E+001	0.0000000E+000	0.0000000E+000	0.0000000E+000	-4.7491505E+001	0.0000000E+000	0.0000000E+000	0.0000000E+000	-4.2508495E+001	0.0000000E+000	0.0000000E+000	0.0000000E+000	4.2508495E+001	1.0909837E+000	4.7491501E+001	6.099294297558420E-007
1.3894559E+005	1.2654041E+002	1.0388563E+002	1.6372141E+002	-3.9384899E+001	02/16/2024 15:13:09.9177	3.5173959E-001	6.1225127E-003	1.1026048E-002	4.4393549E-003	1.000000000000000E+000	11	1.0459921E-002	6.3888539E-005	0	1.189790889432253E-005	4.7208294E-003	3.8756498E-003	6.1079366E-003	3.9384899E+001	4.4393549E+000	5.4074645E+000	6.9963236E+000	-5.0615101E+001	0.0000000E+000	0.0000000E+000	0.0000000E+000	5.0615101E+001	0.0000000E+000	0.0000000E+000	0.0000000E+000	-5.0615101E+001	0.0000000E+000	0.0000000E+000	0.0000000E+000	-3.9384899E+001	0.0000000E+000	0.0000000E+000	0.0000000E+000	3.9384899E+001	1.2180743E+000	5.0615097E+001	1.072116240529593E-006
1.0000371E+005	1.4425108E+002	1.0826884E+002	1.8036218E+002	-3.6890362E+001	02/16/2024 15:13:10.4967	3.5176829E-001	6.2014763E-003	1.4699430E-002	5.2968357E-003	1.000000000000000E+000	11	1.0648691E-002	5.9040598E-005	0	1.341746192820033E-005	4.4343309E-003	3.3282237E-003	5.5443994E-003	3.6890362E+001	5.2968364E+000	7.0571961E+000	8.8238592E+000	-5.3109638E+001	0.0000000E+000	0.0000000E+000	0.0000000E+000	5.3109638E+001	0.0000000E+000	0.0000000E+000	0.0000000E+000	-5.3109638E+001	0.0000000E+000	0.0000000E+000	0.0000000E+000	-3.6890362E+001	0.0000000E+000	0.0000000E+000	0.0000000E+000	3.6890362E+001	1.3323417E+000	5.3109634E+001	1.519553033877806E-006
7.1964070E+004	1.6529762E+002	1.1683367E+002	2.0241890E+002	-3.5252972E+001	02/16/2024 15:13:11.0757	3.5177675E-001	5.8852485E-003	1.8929379E-002	6.3062375E-003	1.000000000000000E+000	11	1.0734188E-002	5.3029577E-005	0	1.413609714270610E-005	4.0342654E-003	2.8514508E-003	4.9402500E-003	3.5252972E+001	6.3062367E+000	8.9221373E+000	1.0925802E+001	-5.4747028E+001	0.0000000E+000	0.0000000E+000	0.0000000E+000	5.4747028E+001	0.0000000E+000	0.0000000E+000	0.0000000E+000	-5.4747028E+001	0.0000000E+000	0.0000000E+000	0.0000000E+000	-3.5252972E+001	0.0000000E+000	0.0000000E+000	0.0000000E+000	3.5252972E+001	1.4148115E+000	5.4747025E+001	7.186352145057653E-007
5.1792605E+004	1.9361858E+002	1.2525900E+002	2.3060349E+002	-3.2900318E+001	02/16/2024 15:13:11.6547	3.5179836E-001	5.4792296E-003	2.4532592E-002	7.2381832E-003	1.000000000000000E+000	11	1.0746484E-002	4.6601566E-005	0	1.494471582116239E-005	3.6409548E-003	2.3554680E-003	4.3364479E-003	3.2900318E+001	7.2381830E+000	1.1188392E+001	1.3325592E+001	-5.7099682E+001	0.0000000E+000	0.0000000E+000	0.0000000E+000	5.7099682E+001	0.0000000E+000	0.0000000E+000	0.0000000E+000	-5.7099682E+001	0.0000000E+000	0.0000000E+000	0.0000000E+000	-3.2900318E+001	0.0000000E+000	0.0000000E+000	0.0000000E+000	3.2900318E+001	1.5457458E+000	5.7099686E+001	8.086186784562911E-007
3.7271750E+004	2.2865820E+002	1.2871718E+002	2.6239795E+002	-2.9376204E+001	02/16/2024 15:13:12.2337	3.5180095E-001	5.0868387E-003	3.3174459E-002	7.9828138E-003	1.000000000000000E+000	11	1.0761698E-002	4.1012889E-005	0	1.588632021796613E-005	3.3209773E-003	1.8694578E-003	3.8110055E-003	2.9376204E+001	7.9828143E+000	1.4180980E+001	1.6273460E+001	-6.0623795E+001	0.0000000E+000	0.0000000E+000	0.0000000E+000	6.0623795E+001	0.0000000E+000	0.0000000E+000	0.0000000E+000	-6.0623795E+001	0.0000000E+000	0.0000000E+000	0.0000000E+000	-2.9376204E+001	0.0000000E+000	0.0000000E+000	0.0000000E+000	2.9376204E+001	1.7764390E+000	6.0623795E+001	9.416043968037435E-007
2.6824154E+004	2.6440262E+002	1.2353180E+002	2.9183704E+002	-2.5042496E+001	02/16/2024 15:13:12.8127	3.5179856E-001	5.1139067E-003	4.8030306E-002	8.6058164E-003	1.000000000000000E+000	11	1.0647596E-002	3.6484733E-005	0	1.656921101208395E-005	3.1044520E-003	1.4504340E-003	3.4265700E-003	2.5042496E+001	8.6058159E+000	1.8419552E+001	2.0330763E+001	-6.4957504E+001	0.0000000E+000	0.0000000E+000	0.0000000E+000	6.4957504E+001	0.0000000E+000	0.0000000E+000	0.0000000E+000	-6.4957504E+001	0.0000000E+000	0.0000000E+000	0.0000000E+000	-2.5042496E+001	0.0000000E+000	0.0000000E+000	0.0000000E+000	2.5042496E+001	2.1403608E+000	6.4957504E+001	6.828907941178122E-007
1.9308566E+004	2.9839481E+002	1.1112219E+002	3.1841418E+002	-2.0425325E+001	02/16/2024 15:13:13.3917	3.5179374E-001	5.2440190E-003	7.4177012E-002	9.0341251E-003	1.000000000000000E+000	11	1.0609750E-002	3.3320594E-005	0	1.774754361723050E-005	2.9431095E-003	1.0960137E-003	3.1405636E-003	2.0425325E+001	9.0341234E+000	2.4259203E+001	2.5886759E+001	-6.9574677E+001	0.0000000E+000	0.0000000E+000	0.0000000E+000	6.9574677E+001	0.0000000E+000	0.0000000E+000	0.0000000E+000	-6.9574677E+001	0.0000000E+000	0.0000000E+000	0.0000000E+000	-2.0425325E+001	0.0000000E+000	0.0000000E+000	0.0000000E+000	2.0425325E+001	2.6852853E+000	6.9574677E+001	1.178332605146554E-006
1.3899199E+004	3.2137875E+002	9.1378960E+001	3.3411737E+002	-1.5872262E+001	02/16/2024 15:13:13.9707	3.5180503E-001	5.2044438E-003	1.2530954E-001	9.3729971E-003	1.000000000000000E+000	11	1.0383517E-002	3.1077452E-005	0	1.869141870762360E-005	2.8788501E-003	8.1855542E-004	2.9929602E-003	1.5872262E+001	9.3729954E+000	3.2964718E+001	3.4271355E+001	-7.4127739E+001	0.0000000E+000	0.0000000E+000	0.0000000E+000	7.4127739E+001	0.0000000E+000	0.0000000E+000	0.0000000E+000	-7.4127739E+001	0.0000000E+000	0.0000000E+000	0.0000000E+000	-1.5872262E+001	0.0000000E+000	0.0000000E+000	0.0000000E+000	1.5872262E+001	3.5169885E+000	7.4127739E+001	9.438750903930974E-007
1.0002226E+004	3.3814850E+002	7.4183990E+001	3.4619022E+002	-1.2373688E+001	02/16/2024 15:13:14.5497	3.5183156E-001	4.7805044E-003	2.1449310E-001	9.8492717E-003	1.000000000000000E+000	11	1.0382309E-002	2.9990186E-005	0	1.946960131974753E-005	2.8214860E-003	6.1898568E-004	2.8885854E-003	1.2373688E+001	9.8492708E+000	4.4895351E+001	4.5963036E+001	-7.7626312E+001	0.0000000E+000	0.0000000E+000	0.0000000E+000	7.7626312E+001	0.0000000E+000	0.0000000E+000	0.0000000E+000	-7.7626312E+001	0.0000000E+000	0.0000000E+000	0.0000000E+000	-1.2373688E+001	0.0000000E+000	0.0000000E+000	0.0000000E+000	1.2373688E+001	4.5582409E+000	7.7626312E+001	7.781826121239307E-007
7.1953535E+003	3.4929276E+002	5.8912857E+001	3.5422614E+002	-9.5735912E+000	02/16/2024 15:13:15.2606	3.5183999E-001	4.5662015E-003	3.7545505E-001	1.0385249E-002	1.000000000000000E+000	11	1.0099218E-002	2.8510653E-005	0	2.025211965767085E-005	2.7837383E-003	4.6951440E-004	2.8230555E-003	9.5735912E+000	1.0385251E+001	6.1573864E+001	6.2443527E+001	-8.0426407E+001	0.0000000E+000	0.0000000E+000	0.0000000E+000	8.0426407E+001	0.0000000E+000	0.0000000E+000	0.0000000E+000	-8.0426407E+001	0.0000000E+000	0.0000000E+000	0.0000000E+000	-9.5735912E+000	0.0000000E+000	0.0000000E+000	0.0000000E+000	9.5735912E+000	5.9289732E+000	8.0426407E+001	7.825183379233172E-007
5.1814517E+003	3.5616684E+002	4.6981262E+001	3.5925208E+002	-7.5143905E+000	02/16/2024 15:13:15.9556	3.5184339E-001	4.6042833E-003	6.5379858E-001	1.1181364E-002	1.000000000000000E+000	11	1.0981488E-002	3.0567640E-005	0	2.099346978906043E-005	2.7596557E-003	3.6402073E-004	2.7835609E-003	7.5143905E+000	1.1181362E+001	8.4766373E+001	8.5500648E+001	-8.2485611E+001	0.0000000E+000	0.0000000E+000	0.0000000E+000	8.2485611E+001	0.0000000E+000	0.0000000E+000	0.0000000E+000	-8.2485611E+001	0.0000000E+000	0.0000000E+000	0.0000000E+000	-7.5143905E+000	0.0000000E+000	0.0000000E+000	0.0000000E+000	7.5143905E+000	7.5810404E+000	8.2485611E+001	7.413501313895850E-007
3.7264229E+003	3.6141690E+002	3.7018013E+001	3.6330774E+002	-5.8481088E+000	02/16/2024 15:13:16.8874	3.5180905E-001	4.4590500E-003	1.1537584E+000	1.1978207E-002	1.000000000000000E+000	11	1.0223581E-002	2.8140277E-005	0	2.221000366582418E-005	2.7381622E-003	2.8045542E-004	2.7524875E-003	5.8481088E+000	1.1978202E+001	1.1694648E+002	1.1755831E+002	-8.4151894E+001	0.0000000E+000	0.0000000E+000	0.0000000E+000	8.4151894E+001	0.0000000E+000	0.0000000E+000	0.0000000E+000	-8.4151894E+001	0.0000000E+000	0.0000000E+000	0.0000000E+000	-5.8481088E+000	0.0000000E+000	0.0000000E+000	0.0000000E+000	5.8481088E+000	9.7632713E+000	8.4151894E+001	1.216533876763754E-006
2.6824250E+003	3.6432675E+002	3.2401524E+001	3.6576474E+002	-5.0822482E+000	02/16/2024 15:13:17.5853	3.5182813E-001	4.4149943E-003	1.8311634E+000	1.4369918E-002	1.000000000000000E+000	11	1.0501765E-002	2.8711802E-005	0	2.300272734075689E-005	2.7232491E-003	2.4219308E-004	2.7339978E-003	5.0822482E+000	1.4369909E+001	1.6157715E+002	1.6221489E+002	-8.4917755E+001	0.0000000E+000	0.0000000E+000	0.0000000E+000	8.4917755E+001	0.0000000E+000	0.0000000E+000	0.0000000E+000	-8.4917755E+001	0.0000000E+000	0.0000000E+000	0.0000000E+000	-5.0822482E+000	0.0000000E+000	0.0000000E+000	0.0000000E+000	5.0822482E+000	1.1244124E+001	8.4917755E+001	7.927236749327080E-007
1.9306176E+003	3.6746164E+002	2.8016737E+001	3.6852814E+002	-4.3600225E+000	02/16/2024 15:13:18.5481	3.5181949E-001	3.4391622E-003	2.9424312E+000	1.7005920E-002	1.000000000000000E+000	12	1.0036449E-002	2.7233875E-005	0	2.385213906280296E-005	2.7056444E-003	2.0628907E-004	2.7134970E-003	4.3600225E+000	1.7005922E+001	2.2304608E+002	2.2369344E+002	-8.5639977E+001	0.0000000E+000	0.0000000E+000	0.0000000E+000	8.5639977E+001	0.0000000E+000	0.0000000E+000	0.0000000E+000	-8.5639977E+001	0.0000000E+000	0.0000000E+000	0.0000000E+000	-4.3600225E+000	0.0000000E+000	0.0000000E+000	0.0000000E+000	4.3600225E+000	1.3115790E+001	8.5639977E+001	8.494117220460691E-007
1.3886667E+003	3.7021146E+002	2.4988642E+001	3.7105383E+002	-3.8615103E+000	02/16/2024 15:13:19.2463	3.5184133E-001	3.3659446E-003	4.5864792E+000	2.0801319E-002	1.000000000000000E+000	12	1.0410704E-002	2.8057124E-005	0	2.462139880011172E-005	2.6889085E-003	1.8149674E-004	2.6950268E-003	3.8615103E+000	2.0801325E+001	3.0817548E+002	3.0887671E+002	-8.6138489E+001	0.0000000E+000	0.0000000E+000	0.0000000E+000	8.6138489E+001	0.0000000E+000	0.0000000E+000	0.0000000E+000	-8.6138489E+001	0.0000000E+000	0.0000000E+000	0.0000000E+000	-3.8615103E+000	0.0000000E+000	0.0000000E+000	0.0000000E+000	3.8615103E+000	1.4815189E+001	8.6138489E+001	7.692597373087574E-007
1.0003202E+003	3.7176657E+002	2.4887617E+001	3.7259869E+002	-3.8299057E+000	02/16/2024 15:13:19.9431	3.5182503E-001	3.3031383E-003	6.3928981E+000	2.8522117E-002	1.000000000000000E+000	12	1.0590394E-002	2.8423057E-005	0	2.514672834556323E-005	2.6778588E-003	1.7926712E-004	2.6838526E-003	3.8299057E+000	2.8522093E+001	4.2605807E+002	4.2701169E+002	-8.6170097E+001	0.0000000E+000	0.0000000E+000	0.0000000E+000	8.6170097E+001	0.0000000E+000	0.0000000E+000	0.0000000E+000	-8.6170097E+001	0.0000000E+000	0.0000000E+000	0.0000000E+000	-3.8299057E+000	0.0000000E+000	0.0000000E+000	0.0000000E+000	3.8299057E+000	1.4937813E+001	8.6170097E+001	5.253295454515141E-007
7.1930957E+002	3.7550238E+002	2.7003881E+001	3.7647211E+002	-4.1132879E+000	02/16/2024 15:13:20.6413	3.5180563E-001	3.2430936E-003	8.1936636E+000	4.2156532E-002	1.000000000000000E+000	12	1.0721952E-002	2.8480070E-005	0	2.567504791492704E-005	2.6493974E-003	1.9052876E-004	2.6562393E-003	4.1132879E+000	4.2156540E+001	5.8620752E+002	5.8772137E+002	-8.5886711E+001	0.0000000E+000	0.0000000E+000	0.0000000E+000	8.5886711E+001	0.0000000E+000	0.0000000E+000	0.0000000E+000	-8.5886711E+001	0.0000000E+000	0.0000000E+000	0.0000000E+000	-4.1132879E+000	0.0000000E+000	0.0000000E+000	0.0000000E+000	4.1132879E+000	1.3905497E+001	8.5886711E+001	5.283195693638056E-007
5.1817603E+002	3.7869040E+002	2.9898468E+001	3.7986884E+002	-4.5142679E+000	02/16/2024 15:13:21.3409	3.5186636E-001	3.2184264E-003	1.0272920E+001	6.3639157E-002	1.000000000000000E+000	12	1.0774798E-002	2.8364520E-005	0	2.639612003313656E-005	2.6243210E-003	2.0719612E-004	2.6324876E-003	4.5142679E+000	6.3639149E+001	8.0604596E+002	8.0855426E+002	-8.5485733E+001	0.0000000E+000	0.0000000E+000	0.0000000E+000	8.5485733E+001	0.0000000E+000	0.0000000E+000	0.0000000E+000	-8.5485733E+001	0.0000000E+000	0.0000000E+000	0.0000000E+000	-4.5142679E+000	0.0000000E+000	0.0000000E+000	0.0000000E+000	4.5142679E+000	1.2665879E+001	8.5485733E+001	7.210721182095251E-007
3.7273376E+002	3.8321588E+002	3.3634605E+001	3.8468909E+002	-5.0159593E+000	02/16/2024 15:13:22.0404	3.5182795E-001	3.1705848E-003	1.2695069E+001	9.7048312E-002	1.000000000000000E+000	12	1.0805804E-002	2.8089707E-005	0	2.691628660067201E-005	2.5895468E-003	2.2728283E-004	2.5995020E-003	5.0159593E+000	9.7048340E+001	1.1057200E+003	1.1099707E+003	-8.4984039E+001	0.0000000E+000	0.0000000E+000	0.0000000E+000	8.4984039E+001	0.0000000E+000	0.0000000E+000	0.0000000E+000	-8.4984039E+001	0.0000000E+000	0.0000000E+000	0.0000000E+000	-5.0159593E+000	0.0000000E+000	0.0000000E+000	0.0000000E+000	5.0159593E+000	1.1393500E+001	8.4984039E+001	5.201665675354486E-007
2.6836835E+002	3.8773627E+002	3.8154163E+001	3.8960898E+002	-5.6199470E+000	02/16/2024 15:13:22.7414	3.5184786E-001	3.0916012E-003	1.5543433E+001	1.4906403E-001	1.000000000000000E+000	12	1.0826945E-002	2.7789260E-005	0	2.762349339861279E-005	2.5543389E-003	2.5135296E-004	2.5666759E-003	5.6199470E+000	1.4906410E+002	1.5148422E+003	1.5221586E+003	-8.4380051E+001	0.0000000E+000	0.0000000E+000	0.0000000E+000	8.4380051E+001	0.0000000E+000	0.0000000E+000	0.0000000E+000	-8.4380051E+001	0.0000000E+000	0.0000000E+000	0.0000000E+000	-5.6199470E+000	0.0000000E+000	0.0000000E+000	0.0000000E+000	5.6199470E+000	1.0162358E+001	8.4380051E+001	7.072067979407730E-007
