EC-Lab ASCII FILE
Nb header lines : 65                          

Potentio Electrochemical Impedance Spectroscopy

Run on channel : 1 (SN 6813)
User : 
CE vs. WE compliance from -10 V to 10 V
Electrode connection : standard
Potential control : Ewe
Ewe ctrl range : min = -1.00 V, max = 1.00 V
Safety Limits :
	Do not start on E overload
Acquisition started on : 02/16/2024 15:18:29.856
Technique started on : 02/16/2024 15:18:31.562
Loaded Setting File :  NONE
Saved on :
	File : 10 2EL413 RVC EtOH TBA-BF4_(under Ar) solidstateref+faradaiccage EIS 0-4.mpr
	Directory : C:\Users\VSP\Documents\EC-Lab\Data\Louis\2024 02 16\
	Host : 10.10.11.222
Device : VSP (SN 0301)
Address : USB
EC-Lab for windows v11.50 (software)
Internet server v11.50 (firmware)
Command interpretor v11.50 (firmware)
Electrode material : 
Initial state : 
Electrolyte : 
Comments : 
Current amplifier : Low Current
Electrode surface area : 0.001 cm²
Characteristic mass : 0.001 g
Equivalent Weight : 0.000 g/eq.
Density : 0.000 g/cm3
Volume (V) : 0.001 cm³
Cycle Definition : Charge/Discharge alternance
Mode                Single sine         
E (V)               0.4000              
vs.                 Eoc                 
tE (h:m:s)          0:00:0.0000         
record              0                   
dI                  0.000               
unit dI             mA                  
dt (s)              0.000               
fi                  1.000               
unit fi             MHz                 
ff                  0.100               
unit ff             Hz                  
Nd                  50                  
Points              from fi to ff       
spacing             Logarithmic         
Va (mV)             10.0                
pw                  0.10                
Na                  3                   
corr                0                   
E range min (V)     -1.000              
E range max (V)     1.000               
I Range             Auto                
Bandwidth           4                   
nc cycles           0                   
goto Ns'            0                   
nr cycles           0                   
inc. cycle          0                   

freq/Hz	Re(Z)/Ohm	-Im(Z)/Ohm	|Z|/Ohm	Phase(Z)/deg	time/s	<Ewe>/V	<I>/mA	Cs/µF	Cp/µF	cycle number	I Range	|Ewe|/V	|I|/A	Ns	(Q-Qo)/mA.h	Re(Y)/Ohm-1	Im(Y)/Ohm-1	|Y|/Ohm-1	Phase(Y)/deg	Re(C)/nF	Im(C)/nF	|C|/nF	Phase(C)/deg	Re(M)	Im(M)	|M|	Phase(M)/deg	Re(Permittivity)	Im(Permittivity)	|Permittivity|	Phase(Permittivity)/deg	Re(Resistivity)/Ohm.cm	Im(Resistivity)/Ohm.cm	|Resistivity|/Ohm.cm	Phase(Resistivity)/deg	Re(Conductivity)/mS/cm	Im(Conductivity)/mS/cm	|Conductivity|/mS/cm	Phase(Conductivity)/deg	Tan(Delta)	Loss Angle(Delta)/deg	dq/mA.h	
1.0000186E+006	-1.6490839E+002	3.9385858E+002	4.2698871E+002	-1.1271903E+002	02/16/2024 15:18:31.5617	7.2261119E-001	2.8941023E-001	4.0408410E-004	3.4381085E-004	1.000000000000000E+000	11	1.2887152E-003	3.0181482E-006	0	1.063354930131480E-004	-9.0450270E-004	2.1602674E-003	2.3419822E-003	1.1271903E+002	3.4381089E-001	-1.4395341E-001	3.7273115E-001	2.2719032E+001	0.0000000E+000	0.0000000E+000	0.0000000E+000	-2.2719032E+001	0.0000000E+000	0.0000000E+000	0.0000000E+000	2.2719032E+001	0.0000000E+000	0.0000000E+000	0.0000000E+000	-1.1271903E+002	0.0000000E+000	0.0000000E+000	0.0000000E+000	1.1271903E+002	4.1869947E-001	2.2719025E+001	1.063354930131480E-004
7.1968713E+005	1.1486312E+001	1.9575012E+002	1.9608684E+002	-8.6641823E+001	02/16/2024 15:18:32.1407	7.2311354E-001	2.8946716E-001	1.1297292E-003	1.1258527E-003	1.000000000000000E+000	11	1.6015405E-003	8.1675062E-006	0	1.520014578513090E-004	2.9873344E-004	5.0910241E-003	5.0997813E-003	8.6641823E+001	1.1258526E+000	6.6063292E-002	1.1277891E+000	-3.3581772E+000	0.0000000E+000	0.0000000E+000	0.0000000E+000	3.3581772E+000	0.0000000E+000	0.0000000E+000	0.0000000E+000	-3.3581772E+000	0.0000000E+000	0.0000000E+000	0.0000000E+000	-8.6641823E+001	0.0000000E+000	0.0000000E+000	0.0000000E+000	8.6641823E+001	5.8678441E-002	3.3581848E+000	4.566596483816102E-005
5.1794463E+005	4.9952274E+001	1.6329848E+002	1.7076775E+002	-7.2991364E+001	02/16/2024 15:18:32.7197	7.2326273E-001	2.8905946E-001	1.8817186E-003	1.7207083E-003	1.000000000000000E+000	11	2.6735093E-003	1.5655822E-005	0	1.976536140014780E-004	1.7129455E-003	5.5997735E-003	5.8559068E-003	7.2991364E+001	1.7207084E+000	5.2635700E-001	1.7994136E+000	-1.7008636E+001	0.0000000E+000	0.0000000E+000	0.0000000E+000	1.7008636E+001	0.0000000E+000	0.0000000E+000	0.0000000E+000	-1.7008636E+001	0.0000000E+000	0.0000000E+000	0.0000000E+000	-7.2991364E+001	0.0000000E+000	0.0000000E+000	0.0000000E+000	7.2991364E+001	3.0589554E-001	1.7008636E+001	4.565215615016900E-005
3.7276388E+005	9.0702103E+001	1.2692878E+002	1.5600572E+002	-5.4450760E+001	02/16/2024 15:18:33.2987	7.2327393E-001	2.8844827E-001	3.3637693E-003	2.2267187E-003	1.000000000000000E+000	11	4.1775610E-003	2.6778254E-005	0	2.433026588745027E-004	3.7268018E-003	5.2152970E-003	6.4100213E-003	5.4450760E+001	2.2267187E+000	1.5911920E+000	2.7368171E+000	-3.5549240E+001	0.0000000E+000	0.0000000E+000	0.0000000E+000	3.5549240E+001	0.0000000E+000	0.0000000E+000	0.0000000E+000	-3.5549240E+001	0.0000000E+000	0.0000000E+000	0.0000000E+000	-5.4450760E+001	0.0000000E+000	0.0000000E+000	0.0000000E+000	5.4450760E+001	7.1459055E-001	3.5549240E+001	4.564904487302474E-005
2.6826938E+005	1.0333935E+002	1.0859455E+002	1.4990596E+002	-4.6420437E+001	02/16/2024 15:18:33.8777	7.2314030E-001	2.8812197E-001	5.4631229E-003	2.8669443E-003	1.000000000000000E+000	11	6.2404051E-003	4.1628798E-005	0	2.891433397016695E-004	4.5986245E-003	4.8324815E-003	6.6708489E-003	4.6420437E+001	2.8669443E+000	2.7282050E+000	3.9575841E+000	-4.3579563E+001	0.0000000E+000	0.0000000E+000	0.0000000E+000	4.3579563E+001	0.0000000E+000	0.0000000E+000	0.0000000E+000	-4.3579563E+001	0.0000000E+000	0.0000000E+000	0.0000000E+000	-4.6420437E+001	0.0000000E+000	0.0000000E+000	0.0000000E+000	4.6420437E+001	9.5160711E-001	4.3579559E+001	4.584068082716681E-005
1.9306711E+005	1.1401262E+002	1.0208366E+002	1.5303578E+002	-4.1840363E+001	02/16/2024 15:18:34.3097	7.2308749E-001	2.8777754E-001	8.0752429E-003	3.5932062E-003	1.000000000000000E+000	11	9.4663873E-003	6.1857347E-005	0	3.229666913531045E-004	4.8681833E-003	4.3588332E-003	6.5344195E-003	4.1840363E+001	3.5932057E+000	4.0130887E+000	5.3866510E+000	-4.8159637E+001	0.0000000E+000	0.0000000E+000	0.0000000E+000	4.8159637E+001	0.0000000E+000	0.0000000E+000	0.0000000E+000	-4.8159637E+001	0.0000000E+000	0.0000000E+000	0.0000000E+000	-4.1840363E+001	0.0000000E+000	0.0000000E+000	0.0000000E+000	4.1840363E+001	1.1168547E+000	4.8159637E+001	3.382335165143496E-005
1.3894559E+005	1.2750188E+002	1.0225333E+002	1.6343950E+002	-3.8728745E+001	02/16/2024 15:18:34.8887	7.2312444E-001	2.8735495E-001	1.1202060E-002	4.3846886E-003	1.000000000000000E+000	11	1.0428663E-002	6.3807485E-005	0	3.678289873252911E-004	4.7731218E-003	3.8279248E-003	6.1184722E-003	3.8728745E+001	4.3846889E+000	5.4673629E+000	7.0083914E+000	-5.1271255E+001	0.0000000E+000	0.0000000E+000	0.0000000E+000	5.1271255E+001	0.0000000E+000	0.0000000E+000	0.0000000E+000	-5.1271255E+001	0.0000000E+000	0.0000000E+000	0.0000000E+000	-3.8728745E+001	0.0000000E+000	0.0000000E+000	0.0000000E+000	3.8728745E+001	1.2469215E+000	5.1271255E+001	4.486229597218660E-005
1.0000371E+005	1.4421039E+002	1.0692179E+002	1.7952411E+002	-3.6554314E+001	02/16/2024 15:18:35.4677	7.2314370E-001	2.8653938E-001	1.4884620E-002	5.2798875E-003	1.000000000000000E+000	11	1.0677092E-002	5.9474420E-005	0	4.134424763978976E-004	4.4745672E-003	3.3175743E-003	5.5702827E-003	3.6554314E+001	5.2798877E+000	7.1212306E+000	8.8650513E+000	-5.3445686E+001	0.0000000E+000	0.0000000E+000	0.0000000E+000	5.3445686E+001	0.0000000E+000	0.0000000E+000	0.0000000E+000	-5.3445686E+001	0.0000000E+000	0.0000000E+000	0.0000000E+000	-3.6554314E+001	0.0000000E+000	0.0000000E+000	0.0000000E+000	3.6554314E+001	1.3487464E+000	5.3445686E+001	4.561348907260654E-005
7.1964070E+004	1.6326233E+002	1.1529089E+002	1.9986639E+002	-3.5228577E+001	02/16/2024 15:18:36.0467	7.2317135E-001	2.8573403E-001	1.9182688E-002	6.3829264E-003	1.000000000000000E+000	11	1.0676562E-002	5.3418495E-005	0	4.587914554016800E-004	4.0870169E-003	2.8861270E-003	5.0033424E-003	3.5228577E+001	6.3829269E+000	9.0388012E+000	1.1065337E+001	-5.4771423E+001	0.0000000E+000	0.0000000E+000	0.0000000E+000	5.4771423E+001	0.0000000E+000	0.0000000E+000	0.0000000E+000	-5.4771423E+001	0.0000000E+000	0.0000000E+000	0.0000000E+000	-3.5228577E+001	0.0000000E+000	0.0000000E+000	0.0000000E+000	3.5228577E+001	1.4160905E+000	5.4771423E+001	4.534897900378241E-005
5.1792605E+004	1.8974323E+002	1.2414031E+002	2.2674503E+002	-3.3194889E+001	02/16/2024 15:18:36.6257	7.2318226E-001	2.8537130E-001	2.4753666E-002	7.4197571E-003	1.000000000000000E+000	11	1.0696195E-002	4.7172787E-005	0	5.041493832498413E-004	3.6905468E-003	2.4145560E-003	4.4102399E-003	3.3194889E+001	7.4197564E+000	1.1340784E+001	1.3552349E+001	-5.6805111E+001	0.0000000E+000	0.0000000E+000	0.0000000E+000	5.6805111E+001	0.0000000E+000	0.0000000E+000	0.0000000E+000	-5.6805111E+001	0.0000000E+000	0.0000000E+000	0.0000000E+000	-3.3194889E+001	0.0000000E+000	0.0000000E+000	0.0000000E+000	3.3194889E+001	1.5284578E+000	5.6805115E+001	4.535792784816131E-005
3.7271750E+004	2.2574834E+002	1.3151466E+002	2.6126312E+002	-3.0223881E+001	02/16/2024 15:18:37.2047	7.2318709E-001	2.8503230E-001	3.2468796E-002	8.2273185E-003	1.000000000000000E+000	11	1.0764446E-002	4.1201551E-005	0	5.490486385096868E-004	3.3072599E-003	1.9267171E-003	3.8275588E-003	3.0223881E+001	8.2273188E+000	1.4122406E+001	1.6344147E+001	-5.9776119E+001	0.0000000E+000	0.0000000E+000	0.0000000E+000	5.9776119E+001	0.0000000E+000	0.0000000E+000	0.0000000E+000	-5.9776119E+001	0.0000000E+000	0.0000000E+000	0.0000000E+000	-3.0223881E+001	0.0000000E+000	0.0000000E+000	0.0000000E+000	3.0223881E+001	1.7165260E+000	5.9776123E+001	4.489925525984542E-005
2.6824154E+004	2.6288400E+002	1.2869556E+002	2.9269531E+002	-2.6084181E+001	02/16/2024 15:18:37.7837	7.2317475E-001	2.8449190E-001	4.6103146E-002	8.9130457E-003	1.000000000000000E+000	11	1.0680552E-002	3.6490339E-005	0	5.936230143944881E-004	3.0685461E-003	1.5022148E-003	3.4165222E-003	2.6084181E+001	8.9130459E+000	1.8206511E+001	2.0271147E+001	-6.3915817E+001	0.0000000E+000	0.0000000E+000	0.0000000E+000	6.3915817E+001	0.0000000E+000	0.0000000E+000	0.0000000E+000	-6.3915817E+001	0.0000000E+000	0.0000000E+000	0.0000000E+000	-2.6084181E+001	0.0000000E+000	0.0000000E+000	0.0000000E+000	2.6084181E+001	2.0426812E+000	6.3915817E+001	4.457437588480139E-005
1.9308566E+004	2.9722580E+002	1.1728516E+002	3.1952933E+002	-2.1534168E+001	02/16/2024 15:18:38.3627	7.2317880E-001	2.8358504E-001	7.0279241E-002	9.4687296E-003	1.000000000000000E+000	11	1.0497504E-002	3.2853022E-005	0	6.384019273151013E-004	2.9111532E-003	1.1487396E-003	3.1296031E-003	2.1534168E+001	9.4687281E+000	2.3995796E+001	2.5796415E+001	-6.8465836E+001	0.0000000E+000	0.0000000E+000	0.0000000E+000	6.8465836E+001	0.0000000E+000	0.0000000E+000	0.0000000E+000	-6.8465836E+001	0.0000000E+000	0.0000000E+000	0.0000000E+000	-2.1534168E+001	0.0000000E+000	0.0000000E+000	0.0000000E+000	2.1534168E+001	2.5342150E+000	6.8465836E+001	4.477891292061311E-005
1.3899199E+004	3.2594717E+002	9.9823425E+001	3.4089041E+002	-1.7027546E+001	02/16/2024 15:18:38.9417	7.2319746E-001	2.8280193E-001	1.1470910E-001	9.8363338E-003	1.000000000000000E+000	11	1.0429726E-002	3.0595540E-005	0	6.830366056907352E-004	2.8049017E-003	8.5901929E-004	2.9334940E-003	1.7027546E+001	9.8363323E+000	3.2117966E+001	3.3590431E+001	-7.2972458E+001	0.0000000E+000	0.0000000E+000	0.0000000E+000	7.2972458E+001	0.0000000E+000	0.0000000E+000	0.0000000E+000	-7.2972458E+001	0.0000000E+000	0.0000000E+000	0.0000000E+000	-1.7027546E+001	0.0000000E+000	0.0000000E+000	0.0000000E+000	1.7027546E+001	3.2652373E+000	7.2972458E+001	4.463467837563398E-005
1.0002226E+004	3.4408179E+002	7.9486008E+001	3.5314346E+002	-1.3007662E+001	02/16/2024 15:18:39.5207	7.2317457E-001	2.8248346E-001	2.0018558E-001	1.0141725E-002	1.000000000000000E+000	11	1.0332858E-002	2.9259661E-005	0	7.277416539418773E-004	2.7590485E-003	6.3736516E-004	2.8317103E-003	1.3007662E+001	1.0141724E+001	4.3901855E+001	4.5058044E+001	-7.6992340E+001	0.0000000E+000	0.0000000E+000	0.0000000E+000	7.6992340E+001	0.0000000E+000	0.0000000E+000	0.0000000E+000	-7.6992340E+001	0.0000000E+000	0.0000000E+000	0.0000000E+000	-1.3007662E+001	0.0000000E+000	0.0000000E+000	0.0000000E+000	1.3007662E+001	4.3288345E+000	7.6992340E+001	4.470504825114204E-005
7.1953535E+003	3.5726947E+002	6.3592106E+001	3.6288486E+002	-1.0092651E+001	02/16/2024 15:18:40.2306	7.2321308E-001	2.8209218E-001	3.4782821E-001	1.0681531E-002	1.000000000000000E+000	11	1.0139836E-002	2.7942295E-005	0	7.822701473378919E-004	2.7130526E-003	4.8290924E-004	2.7556950E-003	1.0092651E+001	1.0681531E+001	6.0010353E+001	6.0953568E+001	-7.9907349E+001	0.0000000E+000	0.0000000E+000	0.0000000E+000	7.9907349E+001	0.0000000E+000	0.0000000E+000	0.0000000E+000	-7.9907349E+001	0.0000000E+000	0.0000000E+000	0.0000000E+000	-1.0092651E+001	0.0000000E+000	0.0000000E+000	0.0000000E+000	1.0092651E+001	5.6181417E+000	7.9907349E+001	5.452849339601467E-005
5.1814517E+003	3.6430154E+002	5.0503628E+001	3.6778558E+002	-7.8926873E+000	02/16/2024 15:18:41.1575	7.2317755E-001	2.8095517E-001	6.0819954E-001	1.1468374E-002	1.000000000000000E+000	11	1.0112414E-002	2.7495405E-005	0	8.538092123915509E-004	2.6932186E-003	3.7336463E-004	2.7189755E-003	7.8926873E+000	1.1468370E+001	8.2725670E+001	8.3516823E+001	-8.2107315E+001	0.0000000E+000	0.0000000E+000	0.0000000E+000	8.2107315E+001	0.0000000E+000	0.0000000E+000	0.0000000E+000	-8.2107315E+001	0.0000000E+000	0.0000000E+000	0.0000000E+000	-7.8926873E+000	0.0000000E+000	0.0000000E+000	0.0000000E+000	7.8926873E+000	7.2133737E+000	8.2107315E+001	7.153906505365899E-005
3.7264229E+003	3.6917365E+002	3.9924377E+001	3.7132617E+002	-6.1722789E+000	02/16/2024 15:18:41.8554	7.2319686E-001	2.8035069E-001	1.0697687E+000	1.2366734E-002	1.000000000000000E+000	11	1.0578475E-002	2.8488364E-005	0	9.073782042437540E-004	2.6774388E-003	2.8955229E-004	2.6930501E-003	6.1722789E+000	1.2366735E+001	1.1435300E+002	1.1501975E+002	-8.3827721E+001	0.0000000E+000	0.0000000E+000	0.0000000E+000	8.3827721E+001	0.0000000E+000	0.0000000E+000	0.0000000E+000	-8.3827721E+001	0.0000000E+000	0.0000000E+000	0.0000000E+000	-6.1722789E+000	0.0000000E+000	0.0000000E+000	0.0000000E+000	6.1722789E+000	9.2468233E+000	8.3827721E+001	5.356899185220306E-005
2.6824250E+003	3.7205304E+002	3.2251251E+001	3.7344827E+002	-4.9542747E+000	02/16/2024 15:18:42.8183	7.2317803E-001	2.7844670E-001	1.8396956E+000	1.3720761E-002	1.000000000000000E+000	12	9.7070616E-003	2.5993055E-005	0	9.788668574525832E-004	2.6677428E-003	2.3125210E-004	2.6777470E-003	4.9542747E+000	1.3720767E+001	1.5828380E+002	1.5887738E+002	-8.5045723E+001	0.0000000E+000	0.0000000E+000	0.0000000E+000	8.5045723E+001	0.0000000E+000	0.0000000E+000	0.0000000E+000	-8.5045723E+001	0.0000000E+000	0.0000000E+000	0.0000000E+000	-4.9542747E+000	0.0000000E+000	0.0000000E+000	0.0000000E+000	4.9542747E+000	1.1536080E+001	8.5045723E+001	7.148865320882923E-005
1.9306176E+003	3.7459589E+002	2.9195570E+001	3.7573190E+002	-4.4565578E+000	02/16/2024 15:18:43.5151	7.2319883E-001	2.7786401E-001	2.8236244E+000	1.7048443E-002	1.000000000000000E+000	12	1.0347337E-002	2.7539149E-005	0	1.031836656441488E-003	2.6534253E-003	2.0680491E-004	2.6614722E-003	4.4565578E+000	1.7048445E+001	2.1874129E+002	2.1940465E+002	-8.5543442E+001	0.0000000E+000	0.0000000E+000	0.0000000E+000	8.5543442E+001	0.0000000E+000	0.0000000E+000	0.0000000E+000	-8.5543442E+001	0.0000000E+000	0.0000000E+000	0.0000000E+000	-4.4565578E+000	0.0000000E+000	0.0000000E+000	0.0000000E+000	4.4565578E+000	1.2830573E+001	8.5543442E+001	5.296979898890514E-005
1.3886667E+003	3.7856497E+002	2.6092209E+001	3.7946310E+002	-3.9428182E+000	02/16/2024 15:18:44.2133	7.2320467E-001	2.7729771E-001	4.3924947E+000	2.0767959E-002	1.000000000000000E+000	12	1.0766902E-002	2.8374043E-005	0	1.084907639246919E-003	2.6290650E-003	1.8120564E-004	2.6353023E-003	3.9428182E+000	2.0767958E+001	3.0131686E+002	3.0203171E+002	-8.6057182E+001	0.0000000E+000	0.0000000E+000	0.0000000E+000	8.6057182E+001	0.0000000E+000	0.0000000E+000	0.0000000E+000	-8.6057182E+001	0.0000000E+000	0.0000000E+000	0.0000000E+000	-3.9428182E+000	0.0000000E+000	0.0000000E+000	0.0000000E+000	3.9428182E+000	1.4508736E+001	8.6057182E+001	5.307098280543068E-005
1.0003202E+003	3.7912939E+002	2.5943514E+001	3.8001599E+002	-3.9146008E+000	02/16/2024 15:18:44.9101	7.2319227E-001	2.7674985E-001	6.1327081E+000	2.8582890E-002	1.000000000000000E+000	12	1.0946900E-002	2.8806418E-005	0	1.137809211892341E-003	2.6253287E-003	1.7964910E-004	2.6314682E-003	3.9146008E+000	2.8582912E+001	4.1770029E+002	4.1867709E+002	-8.6085396E+001	0.0000000E+000	0.0000000E+000	0.0000000E+000	8.6085396E+001	0.0000000E+000	0.0000000E+000	0.0000000E+000	-8.6085396E+001	0.0000000E+000	0.0000000E+000	0.0000000E+000	-3.9146008E+000	0.0000000E+000	0.0000000E+000	0.0000000E+000	3.9146008E+000	1.4613648E+001	8.6085396E+001	5.290157264542191E-005
7.1930957E+002	3.8385590E+002	2.7697468E+001	3.8485385E+002	-4.1270761E+000	02/16/2024 15:18:45.8423	7.2319084E-001	2.7604002E-001	7.9884820E+000	4.1376401E-002	1.000000000000000E+000	12	1.0129507E-002	2.6320398E-005	0	1.208672986733915E-003	2.5916512E-003	1.8700292E-004	2.5983891E-003	4.1270761E+000	4.1376389E+001	5.7343054E+002	5.7492139E+002	-8.5872925E+001	0.0000000E+000	0.0000000E+000	0.0000000E+000	8.5872925E+001	0.0000000E+000	0.0000000E+000	0.0000000E+000	-8.5872925E+001	0.0000000E+000	0.0000000E+000	0.0000000E+000	-4.1270761E+000	0.0000000E+000	0.0000000E+000	0.0000000E+000	4.1270761E+000	1.3858880E+001	8.5872925E+001	7.086377484157372E-005
5.1817603E+002	3.8548291E+002	2.9192945E+001	3.8658673E+002	-4.3307910E+000	02/16/2024 15:18:46.5418	7.2316730E-001	2.7552679E-001	1.0521191E+001	5.9996631E-002	1.000000000000000E+000	12	1.0133493E-002	2.6212729E-005	0	1.261669017853668E-003	2.5793558E-003	1.9533679E-004	2.5867417E-003	4.3307910E+000	5.9996586E+001	7.9223511E+002	7.9450366E+002	-8.5669212E+001	0.0000000E+000	0.0000000E+000	0.0000000E+000	8.5669212E+001	0.0000000E+000	0.0000000E+000	0.0000000E+000	-8.5669212E+001	0.0000000E+000	0.0000000E+000	0.0000000E+000	-4.3307910E+000	0.0000000E+000	0.0000000E+000	0.0000000E+000	4.3307910E+000	1.3204659E+001	8.5669212E+001	5.299603111975329E-005
3.7273376E+002	3.9069876E+002	3.3268646E+001	3.9211264E+002	-4.8670893E+000	02/16/2024 15:18:47.2414	7.2319865E-001	2.7501553E-001	1.2834716E+001	9.2392102E-002	1.000000000000000E+000	12	1.0188524E-002	2.5983665E-005	0	1.314450423905160E-003	2.5410918E-003	2.1637816E-004	2.5502876E-003	4.8670893E+000	9.2392075E+001	1.0850300E+003	1.0889565E+003	-8.5132912E+001	0.0000000E+000	0.0000000E+000	0.0000000E+000	8.5132912E+001	0.0000000E+000	0.0000000E+000	0.0000000E+000	-8.5132912E+001	0.0000000E+000	0.0000000E+000	0.0000000E+000	-4.8670893E+000	0.0000000E+000	0.0000000E+000	0.0000000E+000	4.8670893E+000	1.1743752E+001	8.5132912E+001	5.278140605149235E-005
2.6836835E+002	3.9697061E+002	3.9371181E+001	3.9891824E+002	-5.6640196E+000	02/16/2024 15:18:47.9423	7.2317207E-001	2.7452242E-001	1.5062963E+001	1.4672343E-001	1.000000000000000E+000	12	1.0202819E-002	2.5576215E-005	0	1.367314206937124E-003	2.4945405E-003	2.4740622E-004	2.5067793E-003	5.6640196E+000	1.4672336E+002	1.4793789E+003	1.4866371E+003	-8.4335983E+001	0.0000000E+000	0.0000000E+000	0.0000000E+000	8.4335983E+001	0.0000000E+000	0.0000000E+000	0.0000000E+000	-8.4335983E+001	0.0000000E+000	0.0000000E+000	0.0000000E+000	-5.6640196E+000	0.0000000E+000	0.0000000E+000	0.0000000E+000	5.6640196E+000	1.0082771E+001	8.4335983E+001	5.286378303196392E-005
