EC-Lab ASCII FILE
Nb header lines : 65                          

Potentio Electrochemical Impedance Spectroscopy

Run on channel : 1 (SN 6813)
User : 
CE vs. WE compliance from -10 V to 10 V
Electrode connection : standard
Potential control : Ewe
Ewe ctrl range : min = -1.00 V, max = 1.00 V
Safety Limits :
	Do not start on E overload
Acquisition started on : 02/16/2024 15:25:18.455
Technique started on : 02/16/2024 15:25:19.627
Loaded Setting File :  NONE
Saved on :
	File : 12 2EL413 RVC EtOH TBA-BF4_(under Ar) solidstateref+faradaiccage EIS 0-6.mpr
	Directory : C:\Users\VSP\Documents\EC-Lab\Data\Louis\2024 02 16\
	Host : 10.10.11.222
Device : VSP (SN 0301)
Address : USB
EC-Lab for windows v11.50 (software)
Internet server v11.50 (firmware)
Command interpretor v11.50 (firmware)
Electrode material : 
Initial state : 
Electrolyte : 
Comments : 
Current amplifier : Low Current
Electrode surface area : 0.001 cm²
Characteristic mass : 0.001 g
Equivalent Weight : 0.000 g/eq.
Density : 0.000 g/cm3
Volume (V) : 0.001 cm³
Cycle Definition : Charge/Discharge alternance
Mode                Single sine         
E (V)               0.6000              
vs.                 Eoc                 
tE (h:m:s)          0:00:0.0000         
record              0                   
dI                  0.000               
unit dI             mA                  
dt (s)              0.000               
fi                  1.000               
unit fi             MHz                 
ff                  0.100               
unit ff             Hz                  
Nd                  50                  
Points              from fi to ff       
spacing             Logarithmic         
Va (mV)             10.0                
pw                  0.10                
Na                  3                   
corr                0                   
E range min (V)     -1.000              
E range max (V)     1.000               
I Range             Auto                
Bandwidth           4                   
nc cycles           0                   
goto Ns'            0                   
nr cycles           0                   
inc. cycle          0                   

freq/Hz	Re(Z)/Ohm	-Im(Z)/Ohm	|Z|/Ohm	Phase(Z)/deg	time/s	<Ewe>/V	<I>/mA	Cs/µF	Cp/µF	cycle number	I Range	|Ewe|/V	|I|/A	Ns	(Q-Qo)/mA.h	Re(Y)/Ohm-1	Im(Y)/Ohm-1	|Y|/Ohm-1	Phase(Y)/deg	Re(C)/nF	Im(C)/nF	|C|/nF	Phase(C)/deg	Re(M)	Im(M)	|M|	Phase(M)/deg	Re(Permittivity)	Im(Permittivity)	|Permittivity|	Phase(Permittivity)/deg	Re(Resistivity)/Ohm.cm	Im(Resistivity)/Ohm.cm	|Resistivity|/Ohm.cm	Phase(Resistivity)/deg	Re(Conductivity)/mS/cm	Im(Conductivity)/mS/cm	|Conductivity|/mS/cm	Phase(Conductivity)/deg	Tan(Delta)	Loss Angle(Delta)/deg	dq/mA.h	
1.0000186E+006	-3.0782135E+002	-1.1281165E+002	3.2784210E+002	1.5987291E+002	02/16/2024 15:25:19.6267	7.7052796E-001	3.2698363E-001	-1.4107761E-003	-1.6704619E-004	1.000000000000000E+000	12	1.1365043E-003	3.4666211E-006	0	7.562303206057146E-005	-2.8639752E-003	-1.0496018E-003	3.0502488E-003	-1.5987291E+002	-1.6704623E-001	-4.5580736E-001	4.8545319E-001	1.1012709E+002	0.0000000E+000	0.0000000E+000	0.0000000E+000	-1.1012709E+002	0.0000000E+000	0.0000000E+000	0.0000000E+000	1.1012709E+002	0.0000000E+000	0.0000000E+000	0.0000000E+000	1.5987291E+002	0.0000000E+000	0.0000000E+000	0.0000000E+000	-1.5987291E+002	2.7286308E+000	6.9872910E+001	7.562303206057146E-005
7.1968713E+005	-2.2701906E+002	3.5777972E+002	4.2372632E+002	-1.2239602E+002	02/16/2024 15:25:20.2047	7.7098781E-001	3.2638514E-001	6.1810273E-004	4.4067789E-004	1.000000000000000E+000	12	1.2362493E-003	2.9175656E-006	0	1.271897187257612E-004	-1.2644203E-003	1.9927137E-003	2.3600140E-003	1.2239602E+002	4.4067791E-001	-2.7961975E-001	5.2190441E-001	3.2396019E+001	0.0000000E+000	0.0000000E+000	0.0000000E+000	-3.2396019E+001	0.0000000E+000	0.0000000E+000	0.0000000E+000	3.2396019E+001	0.0000000E+000	0.0000000E+000	0.0000000E+000	-1.2239602E+002	0.0000000E+000	0.0000000E+000	0.0000000E+000	1.2239602E+002	6.3452184E-001	3.2396027E+001	5.156668666518978E-005
5.1794463E+005	4.7156651E+001	1.5634492E+002	1.6330182E+002	-7.3215675E+001	02/16/2024 15:25:21.7667	7.7116948E-001	3.2534447E-001	1.9654094E-003	1.8015178E-003	1.000000000000000E+000	11	2.5433116E-003	1.5574300E-005	0	2.597296741120841E-004	1.7683200E-003	5.8627548E-003	6.1236303E-003	7.3215675E+001	1.8015178E+000	5.4337251E-001	1.8816801E+000	-1.6784325E+001	0.0000000E+000	0.0000000E+000	0.0000000E+000	1.6784325E+001	0.0000000E+000	0.0000000E+000	0.0000000E+000	-1.6784325E+001	0.0000000E+000	0.0000000E+000	0.0000000E+000	-7.3215675E+001	0.0000000E+000	0.0000000E+000	0.0000000E+000	7.3215675E+001	3.0161932E-001	1.6784332E+001	1.325399553863228E-004
3.7276388E+005	8.5493134E+001	1.2012492E+002	1.4744176E+002	-5.4560471E+001	02/16/2024 15:25:22.3457	7.7112621E-001	3.2434350E-001	3.5542930E-003	2.3592741E-003	1.000000000000000E+000	11	3.9170305E-003	2.6566629E-005	0	3.112004720209936E-004	3.9326944E-003	5.5257613E-003	6.7823390E-003	5.4560471E+001	2.3592744E+000	1.6790999E+000	2.8957818E+000	-3.5439529E+001	0.0000000E+000	0.0000000E+000	0.0000000E+000	3.5439529E+001	0.0000000E+000	0.0000000E+000	0.0000000E+000	-3.5439529E+001	0.0000000E+000	0.0000000E+000	0.0000000E+000	-5.4560471E+001	0.0000000E+000	0.0000000E+000	0.0000000E+000	5.4560471E+001	7.1170193E-001	3.5439529E+001	5.147079790890954E-005
2.6826938E+005	9.6161308E+001	1.0328777E+002	1.4112180E+002	-4.7046349E+001	02/16/2024 15:25:22.9237	7.7101457E-001	3.2360035E-001	5.7438104E-003	3.0768742E-003	1.000000000000000E+000	11	5.8157104E-003	4.1210576E-005	0	3.627462563299761E-004	4.8284996E-003	5.1863366E-003	7.0860777E-003	4.7046349E+001	3.0768740E+000	2.8645816E+000	4.2039247E+000	-4.2953651E+001	0.0000000E+000	0.0000000E+000	0.0000000E+000	4.2953651E+001	0.0000000E+000	0.0000000E+000	0.0000000E+000	-4.2953651E+001	0.0000000E+000	0.0000000E+000	0.0000000E+000	-4.7046349E+001	0.0000000E+000	0.0000000E+000	0.0000000E+000	4.7046349E+001	9.3100381E-001	4.2953644E+001	5.154578430898251E-005
1.9306711E+005	1.0577071E+002	9.6990219E+001	1.4350800E+002	-4.2520378E+001	02/16/2024 15:25:23.5027	7.7095932E-001	3.2361677E-001	8.4993150E-003	3.8822866E-003	1.000000000000000E+000	11	8.7943021E-003	6.1280924E-005	0	4.142333997884901E-004	5.1358603E-003	4.7095101E-003	6.9682528E-003	4.2520378E+001	3.8822865E+000	4.2337484E+000	5.7442818E+000	-4.7479622E+001	0.0000000E+000	0.0000000E+000	0.0000000E+000	4.7479622E+001	0.0000000E+000	0.0000000E+000	0.0000000E+000	-4.7479622E+001	0.0000000E+000	0.0000000E+000	0.0000000E+000	-4.2520378E+001	0.0000000E+000	0.0000000E+000	0.0000000E+000	4.2520378E+001	1.0905296E+000	4.7479614E+001	5.148714345851397E-005
1.3894559E+005	1.1879110E+002	9.6914131E+001	1.5330908E+002	-3.9208828E+001	02/16/2024 15:25:24.0817	7.7098364E-001	3.2354733E-001	1.1819204E-002	4.7230949E-003	1.000000000000000E+000	11	1.0250146E-002	6.6859349E-005	0	4.646793798649887E-004	5.0541502E-003	4.1233613E-003	6.5227710E-003	3.9208828E+001	4.7230954E+000	5.7892661E+000	7.4714947E+000	-5.0791172E+001	0.0000000E+000	0.0000000E+000	0.0000000E+000	5.0791172E+001	0.0000000E+000	0.0000000E+000	0.0000000E+000	-5.0791172E+001	0.0000000E+000	0.0000000E+000	0.0000000E+000	-3.9208828E+001	0.0000000E+000	0.0000000E+000	0.0000000E+000	3.9208828E+001	1.2257355E+000	5.0791168E+001	5.044598007649862E-005
1.0000371E+005	1.3385368E+002	1.0171915E+002	1.6811780E+002	-3.7232220E+001	02/16/2024 15:25:24.6607	7.7103311E-001	3.2293090E-001	1.5645925E-002	5.7276879E-003	1.000000000000000E+000	11	1.0670349E-002	6.3469481E-005	0	5.157251763781500E-004	4.7359043E-003	3.5989464E-003	5.9482101E-003	3.7232220E+001	5.7276888E+000	7.5371461E+000	9.4665194E+000	-5.2767780E+001	0.0000000E+000	0.0000000E+000	0.0000000E+000	5.2767780E+001	0.0000000E+000	0.0000000E+000	0.0000000E+000	-5.2767780E+001	0.0000000E+000	0.0000000E+000	0.0000000E+000	-3.7232220E+001	0.0000000E+000	0.0000000E+000	0.0000000E+000	3.7232220E+001	1.3159143E+000	5.2767776E+001	5.104579651316131E-005
7.1964070E+004	1.5256447E+002	1.0993975E+002	1.8804964E+002	-3.5776966E+001	02/16/2024 15:25:25.2387	7.7103990E-001	3.2219934E-001	2.0116372E-002	6.8756561E-003	1.000000000000000E+000	11	1.0656695E-002	5.6669585E-005	0	5.666974684342697E-004	4.3142806E-003	3.1089215E-003	5.3177448E-003	3.5776966E+001	6.8756561E+000	9.5414143E+000	1.1760665E+001	-5.4223034E+001	0.0000000E+000	0.0000000E+000	0.0000000E+000	5.4223034E+001	0.0000000E+000	0.0000000E+000	0.0000000E+000	-5.4223034E+001	0.0000000E+000	0.0000000E+000	0.0000000E+000	-3.5776966E+001	0.0000000E+000	0.0000000E+000	0.0000000E+000	3.5776966E+001	1.3877097E+000	5.4223038E+001	5.097229205611967E-005
5.1792605E+004	1.7727728E+002	1.1987754E+002	2.1400435E+002	-3.4067142E+001	02/16/2024 15:25:25.8177	7.7105910E-001	3.2204291E-001	2.5633892E-002	8.0434987E-003	1.000000000000000E+000	11	1.0706674E-002	5.0030172E-005	0	6.175674786502981E-004	3.8708637E-003	2.6175356E-003	4.6728021E-003	3.4067142E+001	8.0434990E+000	1.1894886E+001	1.4359184E+001	-5.5932858E+001	0.0000000E+000	0.0000000E+000	0.0000000E+000	5.5932858E+001	0.0000000E+000	0.0000000E+000	0.0000000E+000	-5.5932858E+001	0.0000000E+000	0.0000000E+000	0.0000000E+000	-3.4067142E+001	0.0000000E+000	0.0000000E+000	0.0000000E+000	3.4067142E+001	1.4788198E+000	5.5932861E+001	5.087001021602839E-005
3.7271750E+004	2.1052115E+002	1.2844353E+002	2.4661081E+002	-3.1388275E+001	02/16/2024 15:25:26.3967	7.7107090E-001	3.2229155E-001	3.3245135E-002	9.0183765E-003	1.000000000000000E+000	11	1.0756985E-002	4.3619279E-005	0	6.686608132658068E-004	3.4615572E-003	2.1119714E-003	4.0549724E-003	3.1388275E+001	9.0183764E+000	1.4781274E+001	1.7315229E+001	-5.8611725E+001	0.0000000E+000	0.0000000E+000	0.0000000E+000	5.8611725E+001	0.0000000E+000	0.0000000E+000	0.0000000E+000	-5.8611725E+001	0.0000000E+000	0.0000000E+000	0.0000000E+000	-3.1388275E+001	0.0000000E+000	0.0000000E+000	0.0000000E+000	3.1388275E+001	1.6390172E+000	5.8611725E+001	5.109333461550869E-005
2.6824154E+004	2.4806819E+002	1.2762664E+002	2.7897382E+002	-2.7225008E+001	02/16/2024 15:25:26.9747	7.7107298E-001	3.2226896E-001	4.6489276E-002	9.7299041E-003	1.000000000000000E+000	11	1.0707014E-002	3.8379996E-005	0	7.195382109407607E-004	3.1874562E-003	1.6398890E-003	3.5845658E-003	2.7225008E+001	9.7299032E+000	1.8912037E+001	2.1268196E+001	-6.2774994E+001	0.0000000E+000	0.0000000E+000	0.0000000E+000	6.2774994E+001	0.0000000E+000	0.0000000E+000	0.0000000E+000	-6.2774994E+001	0.0000000E+000	0.0000000E+000	0.0000000E+000	-2.7225008E+001	0.0000000E+000	0.0000000E+000	0.0000000E+000	2.7225008E+001	1.9437022E+000	6.2774994E+001	5.087739767495390E-005
1.9308566E+004	2.8379828E+002	1.1919874E+002	3.0781454E+002	-2.2783001E+001	02/16/2024 15:25:27.5537	7.7111226E-001	3.2159209E-001	6.9150999E-002	1.0369636E-002	1.000000000000000E+000	11	1.0586695E-002	3.4393095E-005	0	7.700904759021392E-004	2.9952389E-003	1.2580369E-003	3.2487095E-003	2.2783001E+001	1.0369637E+001	2.4688890E+001	2.6778175E+001	-6.7216995E+001	0.0000000E+000	0.0000000E+000	0.0000000E+000	6.7216995E+001	0.0000000E+000	0.0000000E+000	0.0000000E+000	-6.7216995E+001	0.0000000E+000	0.0000000E+000	0.0000000E+000	-2.2783001E+001	0.0000000E+000	0.0000000E+000	0.0000000E+000	2.2783001E+001	2.3808832E+000	6.7216995E+001	5.055226496137851E-005
1.3899199E+004	3.1185858E+002	1.0200609E+002	3.2811737E+002	-1.8112448E+001	02/16/2024 15:25:28.1327	7.7105832E-001	3.2100648E-001	1.1225463E-001	1.0849208E-002	1.000000000000000E+000	11	1.0404654E-002	3.1710159E-005	0	8.207552888413225E-004	2.8966714E-003	9.4747473E-004	3.0476898E-003	1.8112448E+001	1.0849209E+001	3.3168789E+001	3.4898048E+001	-7.1887550E+001	0.0000000E+000	0.0000000E+000	0.0000000E+000	7.1887550E+001	0.0000000E+000	0.0000000E+000	0.0000000E+000	-7.1887550E+001	0.0000000E+000	0.0000000E+000	0.0000000E+000	-1.8112448E+001	0.0000000E+000	0.0000000E+000	0.0000000E+000	1.8112448E+001	3.0572546E+000	7.1887550E+001	5.066481293918338E-005
1.0002226E+004	3.3220520E+002	8.2846886E+001	3.4237976E+002	-1.4003057E+001	02/16/2024 15:25:28.7107	7.7105993E-001	3.2097623E-001	1.9206460E-001	1.1245623E-002	1.000000000000000E+000	11	1.0256113E-002	2.9955374E-005	0	8.716539922377269E-004	2.8339373E-003	7.0674054E-004	2.9207333E-003	1.4003057E+001	1.1245625E+001	4.5093483E+001	4.6474575E+001	-7.5996941E+001	0.0000000E+000	0.0000000E+000	0.0000000E+000	7.5996941E+001	0.0000000E+000	0.0000000E+000	0.0000000E+000	-7.5996941E+001	0.0000000E+000	0.0000000E+000	0.0000000E+000	-1.4003057E+001	0.0000000E+000	0.0000000E+000	0.0000000E+000	1.4003057E+001	4.0098696E+000	7.5996941E+001	5.089870339640434E-005
7.1953535E+003	3.4499622E+002	6.5233864E+001	3.5110944E+002	-1.0707400E+001	02/16/2024 15:25:29.4216	7.7107197E-001	3.2124040E-001	3.3907431E-001	1.1704587E-002	1.000000000000000E+000	11	1.0130901E-002	2.8853969E-005	0	9.337984423520716E-004	2.7985258E-003	5.2916131E-004	2.8481148E-003	1.0707400E+001	1.1704583E+001	6.1900948E+001	6.2997814E+001	-7.9292603E+001	0.0000000E+000	0.0000000E+000	0.0000000E+000	7.9292603E+001	0.0000000E+000	0.0000000E+000	0.0000000E+000	-7.9292603E+001	0.0000000E+000	0.0000000E+000	0.0000000E+000	-1.0707400E+001	0.0000000E+000	0.0000000E+000	0.0000000E+000	1.0707400E+001	5.2886062E+000	7.9292603E+001	6.214445011434476E-005
5.1814517E+003	3.5437665E+002	5.2019253E+001	3.5817429E+002	-8.3508577E+000	02/16/2024 15:25:30.3485	7.7109963E-001	3.2059562E-001	5.9047914E-001	1.2455007E-002	1.000000000000000E+000	11	1.0168609E-002	2.8390115E-005	0	1.015036439775832E-003	2.7623349E-003	4.0548551E-004	2.7919370E-003	8.3508577E+000	1.2455012E+001	8.4848656E+001	8.5757927E+001	-8.1649139E+001	0.0000000E+000	0.0000000E+000	0.0000000E+000	8.1649139E+001	0.0000000E+000	0.0000000E+000	0.0000000E+000	-8.1649139E+001	0.0000000E+000	0.0000000E+000	0.0000000E+000	-8.3508577E+000	0.0000000E+000	0.0000000E+000	0.0000000E+000	8.3508577E+000	6.8124132E+000	8.1649139E+001	8.123799742376040E-005
3.7264229E+003	3.5941156E+002	4.1920429E+001	3.6184802E+002	-6.6527076E+000	02/16/2024 15:25:31.0463	7.7106130E-001	3.2045487E-001	1.0188314E+000	1.3674181E-002	1.000000000000000E+000	11	1.0668865E-002	2.9484383E-005	0	1.076473289883160E-003	2.7449830E-003	3.2016460E-004	2.7635912E-003	6.6527076E+000	1.3674186E+001	1.1723779E+002	1.1803255E+002	-8.3347290E+001	0.0000000E+000	0.0000000E+000	0.0000000E+000	8.3347290E+001	0.0000000E+000	0.0000000E+000	0.0000000E+000	-8.3347290E+001	0.0000000E+000	0.0000000E+000	0.0000000E+000	-6.6527076E+000	0.0000000E+000	0.0000000E+000	0.0000000E+000	6.6527076E+000	8.5736609E+000	8.3347290E+001	6.143685010732828E-005
2.6824250E+003	3.6348157E+002	3.5614594E+001	3.6522220E+002	-5.5960832E+000	02/16/2024 15:25:31.7443	7.7109253E-001	3.2021162E-001	1.6659600E+000	1.5841860E-002	1.000000000000000E+000	11	1.0968150E-002	3.0031442E-005	0	1.137641922659150E-003	2.7250098E-003	2.6700148E-004	2.7380593E-003	5.5960832E+000	1.5841864E+001	1.6168159E+002	1.6245584E+002	-8.4403915E+001	0.0000000E+000	0.0000000E+000	0.0000000E+000	8.4403915E+001	0.0000000E+000	0.0000000E+000	0.0000000E+000	-8.4403915E+001	0.0000000E+000	0.0000000E+000	0.0000000E+000	-5.5960832E+000	0.0000000E+000	0.0000000E+000	0.0000000E+000	5.5960832E+000	1.0205973E+001	8.4403915E+001	6.116863277598971E-005
1.9306176E+003	3.6452521E+002	3.0793362E+001	3.6582355E+002	-4.8286119E+000	02/16/2024 15:25:32.9401	7.7106726E-001	3.1896216E-001	2.6771135E+000	1.8968705E-002	1.000000000000000E+000	12	9.5172161E-003	2.6015865E-005	0	1.239777015201563E-003	2.7238568E-003	2.3009852E-004	2.7335584E-003	4.8286119E+000	1.8968710E+001	2.2454745E+002	2.2534723E+002	-8.5171387E+001	0.0000000E+000	0.0000000E+000	0.0000000E+000	8.5171387E+001	0.0000000E+000	0.0000000E+000	0.0000000E+000	-8.5171387E+001	0.0000000E+000	0.0000000E+000	0.0000000E+000	-4.8286119E+000	0.0000000E+000	0.0000000E+000	0.0000000E+000	4.8286119E+000	1.1837786E+001	8.5171387E+001	1.021350925424131E-004
1.3886667E+003	3.6787393E+002	2.8898062E+001	3.6900723E+002	-4.4916034E+000	02/16/2024 15:25:33.6373	7.7105761E-001	3.1877738E-001	3.9660058E+000	2.4323218E-002	1.000000000000000E+000	12	9.8981084E-003	2.6823616E-005	0	1.300749224294954E-003	2.7016513E-003	2.1222619E-004	2.7099741E-003	4.4916034E+000	2.4323202E+001	3.0963593E+002	3.1058981E+002	-8.5508400E+001	0.0000000E+000	0.0000000E+000	0.0000000E+000	8.5508400E+001	0.0000000E+000	0.0000000E+000	0.0000000E+000	-8.5508400E+001	0.0000000E+000	0.0000000E+000	0.0000000E+000	-4.4916034E+000	0.0000000E+000	0.0000000E+000	0.0000000E+000	4.4916034E+000	1.2730056E+001	8.5508400E+001	6.097220909339045E-005
1.0003202E+003	3.7092200E+002	2.7479176E+001	3.7193848E+002	-4.2369280E+000	02/16/2024 15:25:34.3341	7.7108413E-001	3.1863883E-001	5.7899842E+000	3.1604037E-002	1.000000000000000E+000	12	1.0111946E-002	2.7187147E-005	0	1.361478758336711E-003	2.6812688E-003	1.9863760E-004	2.6886167E-003	4.2369280E+000	3.1604057E+001	4.2660059E+002	4.2776965E+002	-8.5763069E+001	0.0000000E+000	0.0000000E+000	0.0000000E+000	8.5763069E+001	0.0000000E+000	0.0000000E+000	0.0000000E+000	-8.5763069E+001	0.0000000E+000	0.0000000E+000	0.0000000E+000	-4.2369280E+000	0.0000000E+000	0.0000000E+000	0.0000000E+000	4.2369280E+000	1.3498294E+001	8.5763069E+001	6.072953404175747E-005
7.1930957E+002	3.7402560E+002	2.7561876E+001	3.7503973E+002	-4.2144976E+000	02/16/2024 15:25:35.0323	7.7106225E-001	3.1848231E-001	8.0277815E+000	4.3356929E-002	1.000000000000000E+000	12	1.0215051E-002	2.7237251E-005	0	1.422335218179677E-003	2.6591741E-003	1.9595402E-004	2.6663842E-003	4.2144976E+000	4.3356953E+001	5.8837067E+002	5.8996600E+002	-8.5785500E+001	0.0000000E+000	0.0000000E+000	0.0000000E+000	8.5785500E+001	0.0000000E+000	0.0000000E+000	0.0000000E+000	-8.5785500E+001	0.0000000E+000	0.0000000E+000	0.0000000E+000	-4.2144976E+000	0.0000000E+000	0.0000000E+000	0.0000000E+000	4.2144976E+000	1.3570397E+001	8.5785500E+001	6.085645984296555E-005
5.1817603E+002	3.7971072E+002	3.1645529E+001	3.8102713E+002	-4.7640862E+000	02/16/2024 15:25:35.7318	7.7106035E-001	3.1831893E-001	9.7057810E+000	6.6948891E-002	1.000000000000000E+000	12	1.0314519E-002	2.7070300E-005	0	1.483330286538222E-003	2.6154176E-003	2.1797190E-004	2.6244849E-003	4.7640862E+000	6.6948853E+001	8.0331128E+002	8.0609625E+002	-8.5235916E+001	0.0000000E+000	0.0000000E+000	0.0000000E+000	8.5235916E+001	0.0000000E+000	0.0000000E+000	0.0000000E+000	-8.5235916E+001	0.0000000E+000	0.0000000E+000	0.0000000E+000	-4.7640862E+000	0.0000000E+000	0.0000000E+000	0.0000000E+000	4.7640862E+000	1.1998875E+001	8.5235916E+001	6.099506835854527E-005
3.7273376E+002	3.8363470E+002	3.6980854E+001	3.8541299E+002	-5.5060720E+000	02/16/2024 15:25:36.4314	7.7105433E-001	3.1813371E-001	1.1546343E+001	1.0630303E-001	1.000000000000000E+000	12	1.0319391E-002	2.6774893E-005	0	1.544405020433465E-003	2.5826478E-003	2.4895693E-004	2.5946193E-003	5.5060720E+000	1.0630305E+002	1.1027743E+003	1.1078860E+003	-8.4493927E+001	0.0000000E+000	0.0000000E+000	0.0000000E+000	8.4493927E+001	0.0000000E+000	0.0000000E+000	0.0000000E+000	-8.4493927E+001	0.0000000E+000	0.0000000E+000	0.0000000E+000	-5.5060720E+000	0.0000000E+000	0.0000000E+000	0.0000000E+000	5.5060720E+000	1.0373874E+001	8.4493927E+001	6.107473389524313E-005
2.6836835E+002	3.8977371E+002	4.2806728E+001	3.9211728E+002	-6.2673669E+000	02/16/2024 15:25:37.1323	7.7104634E-001	3.1801242E-001	1.3854053E+001	1.6510831E-001	1.000000000000000E+000	12	1.0318994E-002	2.6316089E-005	0	1.605628475531664E-003	2.5350153E-003	2.7840695E-004	2.5502574E-003	6.2673669E+000	1.6510825E+002	1.5033823E+003	1.5124216E+003	-8.3732635E+001	0.0000000E+000	0.0000000E+000	0.0000000E+000	8.3732635E+001	0.0000000E+000	0.0000000E+000	0.0000000E+000	-8.3732635E+001	0.0000000E+000	0.0000000E+000	0.0000000E+000	-6.2673669E+000	0.0000000E+000	0.0000000E+000	0.0000000E+000	6.2673669E+000	9.1054306E+000	8.3732635E+001	6.122345509819893E-005
