EC-Lab ASCII FILE
Nb header lines : 65                          

Potentio Electrochemical Impedance Spectroscopy

Run on channel : 1 (SN 6813)
User : 
CE vs. WE compliance from -10 V to 10 V
Electrode connection : standard
Potential control : Ewe
Ewe ctrl range : min = -1.00 V, max = 1.00 V
Safety Limits :
	Do not start on E overload
Acquisition started on : 02/16/2024 15:31:43.068
Technique started on : 02/16/2024 15:31:44.775
Loaded Setting File :  NONE
Saved on :
	File : 13 2EL413 RVC EtOH TBA-BF4_(under Ar) solidstateref+faradaiccage EIS 0-7.mpr
	Directory : C:\Users\VSP\Documents\EC-Lab\Data\Louis\2024 02 16\
	Host : 10.10.11.222
Device : VSP (SN 0301)
Address : USB
EC-Lab for windows v11.50 (software)
Internet server v11.50 (firmware)
Command interpretor v11.50 (firmware)
Electrode material : 
Initial state : 
Electrolyte : 
Comments : 
Current amplifier : Low Current
Electrode surface area : 0.001 cm²
Characteristic mass : 0.001 g
Equivalent Weight : 0.000 g/eq.
Density : 0.000 g/cm3
Volume (V) : 0.001 cm³
Cycle Definition : Charge/Discharge alternance
Mode                Single sine         
E (V)               0.7000              
vs.                 Eoc                 
tE (h:m:s)          0:00:0.0000         
record              0                   
dI                  0.000               
unit dI             mA                  
dt (s)              0.000               
fi                  1.000               
unit fi             MHz                 
ff                  0.100               
unit ff             Hz                  
Nd                  50                  
Points              from fi to ff       
spacing             Logarithmic         
Va (mV)             10.0                
pw                  0.10                
Na                  3                   
corr                0                   
E range min (V)     -1.000              
E range max (V)     1.000               
I Range             Auto                
Bandwidth           4                   
nc cycles           0                   
goto Ns'            0                   
nr cycles           0                   
inc. cycle          0                   

freq/Hz	Re(Z)/Ohm	-Im(Z)/Ohm	|Z|/Ohm	Phase(Z)/deg	time/s	<Ewe>/V	<I>/mA	Cs/µF	Cp/µF	cycle number	I Range	|Ewe|/V	|I|/A	Ns	(Q-Qo)/mA.h	Re(Y)/Ohm-1	Im(Y)/Ohm-1	|Y|/Ohm-1	Phase(Y)/deg	Re(C)/nF	Im(C)/nF	|C|/nF	Phase(C)/deg	Re(M)	Im(M)	|M|	Phase(M)/deg	Re(Permittivity)	Im(Permittivity)	|Permittivity|	Phase(Permittivity)/deg	Re(Resistivity)/Ohm.cm	Im(Resistivity)/Ohm.cm	|Resistivity|/Ohm.cm	Phase(Resistivity)/deg	Re(Conductivity)/mS/cm	Im(Conductivity)/mS/cm	|Conductivity|/mS/cm	Phase(Conductivity)/deg	Tan(Delta)	Loss Angle(Delta)/deg	dq/mA.h	
1.0000186E+006	-1.9702512E+002	3.6293066E+002	4.1296194E+002	-1.1849632E+002	02/16/2024 15:31:44.7747	8.6945230E-001	5.2146661E-001	4.3851897E-004	3.3870037E-004	1.000000000000000E+000	11	1.2508309E-003	3.0289254E-006	0	1.926458735302893E-004	-1.1553180E-003	2.1281568E-003	2.4215307E-003	1.1849632E+002	3.3870038E-001	-1.8387115E-001	3.8539141E-001	2.8496323E+001	0.0000000E+000	0.0000000E+000	0.0000000E+000	-2.8496323E+001	0.0000000E+000	0.0000000E+000	0.0000000E+000	2.8496323E+001	0.0000000E+000	0.0000000E+000	0.0000000E+000	-1.1849632E+002	0.0000000E+000	0.0000000E+000	0.0000000E+000	1.1849632E+002	5.4287261E-001	2.8496323E+001	1.926458735302893E-004
7.1968713E+005	7.7129436E-001	1.9727194E+002	1.9727345E+002	-8.9775986E+001	02/16/2024 15:31:45.3537	8.6992472E-001	5.2059203E-001	1.1210141E-003	1.1209970E-003	1.000000000000000E+000	11	1.5733052E-003	7.9752508E-006	0	2.749240052895620E-004	1.9819072E-005	5.0690672E-003	5.0691059E-003	8.9775986E+001	1.1209970E+000	4.3828813E-003	1.1210055E+000	-2.2401428E-001	0.0000000E+000	0.0000000E+000	0.0000000E+000	2.2401428E-001	0.0000000E+000	0.0000000E+000	0.0000000E+000	-2.2401428E-001	0.0000000E+000	0.0000000E+000	0.0000000E+000	-8.9775986E+001	0.0000000E+000	0.0000000E+000	0.0000000E+000	8.9775986E+001	3.9098025E-003	2.2401428E-001	8.227813175927279E-005
5.1794463E+005	4.8630859E+001	1.5482648E+002	1.6228432E+002	-7.2562546E+001	02/16/2024 15:31:45.9327	8.7013298E-001	5.1957524E-001	1.9846850E-003	1.8064624E-003	1.000000000000000E+000	11	2.5045522E-003	1.5433114E-005	0	3.572067786481574E-004	1.8465403E-003	5.8788471E-003	6.1620250E-003	7.2562546E+001	1.8064625E+000	5.6740820E-001	1.8934780E+000	-1.7437454E+001	0.0000000E+000	0.0000000E+000	0.0000000E+000	1.7437454E+001	0.0000000E+000	0.0000000E+000	0.0000000E+000	-1.7437454E+001	0.0000000E+000	0.0000000E+000	0.0000000E+000	-7.2562546E+001	0.0000000E+000	0.0000000E+000	0.0000000E+000	7.2562546E+001	3.1409910E-001	1.7437454E+001	8.228277335859541E-005
3.7276388E+005	8.6168137E+001	1.2176183E+002	1.4916733E+002	-5.4713806E+001	02/16/2024 15:31:46.5117	8.7009466E-001	5.1874548E-001	3.5065105E-003	2.3364155E-003	1.000000000000000E+000	11	3.9353473E-003	2.6382098E-005	0	4.391674634270700E-004	3.8725703E-003	5.4722228E-003	6.7038811E-003	5.4713806E+001	2.3364155E+000	1.6534293E+000	2.8622832E+000	-3.5286194E+001	0.0000000E+000	0.0000000E+000	0.0000000E+000	3.5286194E+001	0.0000000E+000	0.0000000E+000	0.0000000E+000	-3.5286194E+001	0.0000000E+000	0.0000000E+000	0.0000000E+000	-5.4713806E+001	0.0000000E+000	0.0000000E+000	0.0000000E+000	5.4713806E+001	7.0767772E-001	3.5286194E+001	8.196068477891251E-005
2.6826938E+005	9.6352776E+001	1.0218517E+002	1.4044809E+002	-4.6682678E+001	02/16/2024 15:31:47.0917	8.7000012E-001	5.1809490E-001	5.8057872E-003	3.0733019E-003	1.000000000000000E+000	11	5.7658688E-003	4.1053379E-005	0	5.209330209073313E-004	4.8846398E-003	5.1803151E-003	7.1200682E-003	4.6682678E+001	3.0733020E+000	2.8978882E+000	4.2240906E+000	-4.3317322E+001	0.0000000E+000	0.0000000E+000	0.0000000E+000	4.3317322E+001	0.0000000E+000	0.0000000E+000	0.0000000E+000	-4.3317322E+001	0.0000000E+000	0.0000000E+000	0.0000000E+000	-4.6682678E+001	0.0000000E+000	0.0000000E+000	0.0000000E+000	4.6682678E+001	9.4292325E-001	4.3317322E+001	8.176555748026136E-005
1.9306711E+005	1.0692939E+002	9.5836006E+001	1.4359120E+002	-4.1868446E+001	02/16/2024 15:31:47.6707	8.6994767E-001	5.1748896E-001	8.6016776E-003	3.8316417E-003	1.000000000000000E+000	11	8.7489597E-003	6.0929637E-005	0	6.024526568322714E-004	5.1861061E-003	4.6480740E-003	6.9642151E-003	4.1868446E+001	3.8316414E+000	4.2751684E+000	5.7409530E+000	-4.8131554E+001	0.0000000E+000	0.0000000E+000	0.0000000E+000	4.8131554E+001	0.0000000E+000	0.0000000E+000	0.0000000E+000	-4.8131554E+001	0.0000000E+000	0.0000000E+000	0.0000000E+000	-4.1868446E+001	0.0000000E+000	0.0000000E+000	0.0000000E+000	4.1868446E+001	1.1157538E+000	4.8131561E+001	8.151963592494004E-005
1.3894559E+005	1.1985067E+002	9.5422401E+001	1.5319797E+002	-3.8526012E+001	02/16/2024 15:31:48.2497	8.6998016E-001	5.1647472E-001	1.2003972E-002	4.6571442E-003	1.000000000000000E+000	11	1.0340871E-002	6.7500056E-005	0	6.837182805872743E-004	5.1066307E-003	4.0657842E-003	6.5275016E-003	3.8526012E+001	4.6571441E+000	5.8493795E+000	7.4769135E+000	-5.1473988E+001	0.0000000E+000	0.0000000E+000	0.0000000E+000	5.1473988E+001	0.0000000E+000	0.0000000E+000	0.0000000E+000	-5.1473988E+001	0.0000000E+000	0.0000000E+000	0.0000000E+000	-3.8526012E+001	0.0000000E+000	0.0000000E+000	0.0000000E+000	3.8526012E+001	1.2560014E+000	5.1473984E+001	8.126562375500291E-005
1.0000371E+005	1.3232550E+002	9.8743973E+001	1.6510727E+002	-3.6731045E+001	02/16/2024 15:31:48.8287	8.6997253E-001	5.1550239E-001	1.6117342E-002	5.7647731E-003	1.000000000000000E+000	11	1.0555577E-002	6.3931635E-005	0	7.650733495756512E-004	4.8541273E-003	3.6222481E-003	6.0566687E-003	3.6731045E+001	5.7647729E+000	7.7252970E+000	9.6391296E+000	-5.3268955E+001	0.0000000E+000	0.0000000E+000	0.0000000E+000	5.3268955E+001	0.0000000E+000	0.0000000E+000	0.0000000E+000	-5.3268955E+001	0.0000000E+000	0.0000000E+000	0.0000000E+000	-3.6731045E+001	0.0000000E+000	0.0000000E+000	0.0000000E+000	3.6731045E+001	1.3400868E+000	5.3268951E+001	8.135506898837694E-005
7.1964070E+004	1.5068242E+002	1.0764437E+002	1.8518234E+002	-3.5541222E+001	02/16/2024 15:31:49.4077	8.6999184E-001	5.1485831E-001	2.0545328E-002	6.9421916E-003	1.000000000000000E+000	11	1.0704809E-002	5.7806858E-005	0	8.467151040499804E-004	4.3940344E-003	3.1390062E-003	5.4000830E-003	3.5541222E+001	6.9421916E+000	9.7177973E+000	1.1942764E+001	-5.4458778E+001	0.0000000E+000	0.0000000E+000	0.0000000E+000	5.4458778E+001	0.0000000E+000	0.0000000E+000	0.0000000E+000	-5.4458778E+001	0.0000000E+000	0.0000000E+000	0.0000000E+000	-3.5541222E+001	0.0000000E+000	0.0000000E+000	0.0000000E+000	3.5541222E+001	1.3998170E+000	5.4458778E+001	8.164175447432918E-005
5.1792605E+004	1.7312376E+002	1.1989833E+002	2.1058833E+002	-3.4704868E+001	02/16/2024 15:31:49.9867	8.7000525E-001	5.1475561E-001	2.5629446E-002	8.3080083E-003	1.000000000000000E+000	11	1.0672265E-002	5.0678329E-005	0	9.283469791375068E-004	3.9038043E-003	2.7036131E-003	4.7486010E-003	3.4704868E+001	8.3080082E+000	1.1996109E+001	1.4592109E+001	-5.5295132E+001	0.0000000E+000	0.0000000E+000	0.0000000E+000	5.5295132E+001	0.0000000E+000	0.0000000E+000	0.0000000E+000	-5.5295132E+001	0.0000000E+000	0.0000000E+000	0.0000000E+000	-3.4704868E+001	0.0000000E+000	0.0000000E+000	0.0000000E+000	3.4704868E+001	1.4439214E+000	5.5295135E+001	8.163187508752640E-005
3.7271750E+004	2.0647906E+002	1.2775369E+002	2.4280571E+002	-3.1746101E+001	02/16/2024 15:31:50.5657	8.7001723E-001	5.1469558E-001	3.3424649E-002	9.2532868E-003	1.000000000000000E+000	11	1.0748655E-002	4.4268541E-005	0	1.009793352333848E-003	3.5023396E-003	2.1669839E-003	4.1185194E-003	3.1746101E+001	9.2532864E+000	1.4955419E+001	1.7586582E+001	-5.8253899E+001	0.0000000E+000	0.0000000E+000	0.0000000E+000	5.8253899E+001	0.0000000E+000	0.0000000E+000	0.0000000E+000	-5.8253899E+001	0.0000000E+000	0.0000000E+000	0.0000000E+000	-3.1746101E+001	0.0000000E+000	0.0000000E+000	0.0000000E+000	3.1746101E+001	1.6162277E+000	5.8253899E+001	8.144637319634144E-005
2.6824154E+004	2.4411497E+002	1.2891702E+002	2.7606470E+002	-2.7838516E+001	02/16/2024 15:31:51.1447	8.7004346E-001	5.1409835E-001	4.6023946E-002	1.0036508E-002	1.000000000000000E+000	11	1.0732592E-002	3.8877090E-005	0	1.091393127626222E-003	3.2031161E-003	1.6915643E-003	3.6223393E-003	2.7838516E+001	1.0036508E+001	1.9004951E+001	2.1492317E+001	-6.2161484E+001	0.0000000E+000	0.0000000E+000	0.0000000E+000	6.2161484E+001	0.0000000E+000	0.0000000E+000	0.0000000E+000	-6.2161484E+001	0.0000000E+000	0.0000000E+000	0.0000000E+000	-2.7838516E+001	0.0000000E+000	0.0000000E+000	0.0000000E+000	2.7838516E+001	1.8935821E+000	6.2161484E+001	8.159977529237383E-005
1.9308566E+004	2.7945221E+002	1.1989439E+002	3.0408585E+002	-2.3220959E+001	02/16/2024 15:31:51.7237	8.7004358E-001	5.1317489E-001	6.8749771E-002	1.0687510E-002	1.000000000000000E+000	11	1.0624400E-002	3.4938817E-005	0	1.172283037022581E-003	3.0221439E-003	1.2966013E-003	3.2885449E-003	2.3220959E+001	1.0687511E+001	2.4910658E+001	2.7106527E+001	-6.6779037E+001	0.0000000E+000	0.0000000E+000	0.0000000E+000	6.6779037E+001	0.0000000E+000	0.0000000E+000	0.0000000E+000	-6.6779037E+001	0.0000000E+000	0.0000000E+000	0.0000000E+000	-2.3220959E+001	0.0000000E+000	0.0000000E+000	0.0000000E+000	2.3220959E+001	2.3308198E+000	6.6779037E+001	8.088990939635879E-005
1.3899199E+004	3.0998181E+002	1.0380909E+002	3.2690219E+002	-1.8515064E+001	02/16/2024 15:31:52.3027	8.7003183E-001	5.1244122E-001	1.1030494E-001	1.1123208E-002	1.000000000000000E+000	11	1.0501894E-002	3.2125492E-005	0	1.253649264781464E-003	2.9006847E-003	9.7140361E-004	3.0590189E-003	1.8515064E+001	1.1123206E+001	3.3214741E+001	3.5027771E+001	-7.1484940E+001	0.0000000E+000	0.0000000E+000	0.0000000E+000	7.1484940E+001	0.0000000E+000	0.0000000E+000	0.0000000E+000	-7.1484940E+001	0.0000000E+000	0.0000000E+000	0.0000000E+000	-1.8515064E+001	0.0000000E+000	0.0000000E+000	0.0000000E+000	1.8515064E+001	2.9860759E+000	7.1484940E+001	8.136622775888340E-005
1.0002226E+004	3.3067749E+002	8.5521484E+001	3.4155750E+002	-1.4500401E+001	02/16/2024 15:31:52.8817	8.7002844E-001	5.1244092E-001	1.8605797E-001	1.1664633E-002	1.000000000000000E+000	11	1.0291455E-002	3.0130961E-005	0	1.334725983068551E-003	2.8345035E-003	7.3307363E-004	2.9277648E-003	1.4500401E+001	1.1664636E+001	4.5102486E+001	4.6586456E+001	-7.5499596E+001	0.0000000E+000	0.0000000E+000	0.0000000E+000	7.5499596E+001	0.0000000E+000	0.0000000E+000	0.0000000E+000	-7.5499596E+001	0.0000000E+000	0.0000000E+000	0.0000000E+000	-1.4500401E+001	0.0000000E+000	0.0000000E+000	0.0000000E+000	1.4500401E+001	3.8666015E+000	7.5499596E+001	8.107671828708652E-005
7.1953535E+003	3.4446295E+002	6.7630951E+001	3.5103943E+002	-1.1108008E+001	02/16/2024 15:31:53.5916	8.7006164E-001	5.1237720E-001	3.2705629E-001	1.2139525E-002	1.000000000000000E+000	11	1.0282466E-002	2.9291485E-005	0	1.433460381126814E-003	2.7953149E-003	5.4882473E-004	2.8486829E-003	1.1108008E+001	1.2139526E+001	6.1829929E+001	6.3010384E+001	-7.8891991E+001	0.0000000E+000	0.0000000E+000	0.0000000E+000	7.8891991E+001	0.0000000E+000	0.0000000E+000	0.0000000E+000	-7.8891991E+001	0.0000000E+000	0.0000000E+000	0.0000000E+000	-1.1108008E+001	0.0000000E+000	0.0000000E+000	0.0000000E+000	1.1108008E+001	5.0932736E+000	7.8891991E+001	9.873439805826306E-005
5.1814517E+003	3.5289551E+002	5.5504223E+001	3.5723376E+002	-8.9383879E+000	02/16/2024 15:31:54.5186	8.7005377E-001	5.1134956E-001	5.5340445E-001	1.3359484E-002	1.000000000000000E+000	11	1.0073606E-002	2.8198920E-005	0	1.563546441929997E-003	2.7652928E-003	4.3493166E-004	2.7992874E-003	8.9383879E+000	1.3359480E+001	8.4939514E+001	8.5983704E+001	-8.1061615E+001	0.0000000E+000	0.0000000E+000	0.0000000E+000	8.1061615E+001	0.0000000E+000	0.0000000E+000	0.0000000E+000	-8.1061615E+001	0.0000000E+000	0.0000000E+000	0.0000000E+000	-8.9383879E+000	0.0000000E+000	0.0000000E+000	0.0000000E+000	8.9383879E+000	6.3579941E+000	8.1061615E+001	1.300860608031832E-004
3.7264229E+003	3.6030676E+002	4.3798504E+001	3.6295905E+002	-6.9308090E+000	02/16/2024 15:31:55.2163	8.7005264E-001	5.1110148E-001	9.7514403E-001	1.4199466E-002	1.000000000000000E+000	11	1.0593134E-002	2.9185481E-005	0	1.661276672427730E-003	2.7349989E-003	3.3246353E-004	2.7551318E-003	6.9308090E+000	1.4199467E+001	1.1681139E+002	1.1767126E+002	-8.3069191E+001	0.0000000E+000	0.0000000E+000	0.0000000E+000	8.3069191E+001	0.0000000E+000	0.0000000E+000	0.0000000E+000	-8.3069191E+001	0.0000000E+000	0.0000000E+000	0.0000000E+000	-6.9308090E+000	0.0000000E+000	0.0000000E+000	0.0000000E+000	6.9308090E+000	8.2264624E+000	8.3069191E+001	9.773023049773296E-005
2.6824250E+003	3.6296307E+002	3.5862331E+001	3.6473044E+002	-5.6427584E+000	02/16/2024 15:31:55.9143	8.7006116E-001	5.1071936E-001	1.6544514E+000	1.5995102E-002	1.000000000000000E+000	11	1.0831296E-002	2.9696717E-005	0	1.759157033036246E-003	2.7284650E-003	2.6958424E-004	2.7417508E-003	5.6427584E+000	1.5995112E+001	1.6188663E+002	1.6267490E+002	-8.4357239E+001	0.0000000E+000	0.0000000E+000	0.0000000E+000	8.4357239E+001	0.0000000E+000	0.0000000E+000	0.0000000E+000	-8.4357239E+001	0.0000000E+000	0.0000000E+000	0.0000000E+000	-5.6427584E+000	0.0000000E+000	0.0000000E+000	0.0000000E+000	5.6427584E+000	1.0121012E+001	8.4357239E+001	9.788036060851641E-005
1.9306176E+003	3.6760577E+002	3.1747208E+001	3.6897409E+002	-4.9359369E+000	02/16/2024 15:31:56.8451	8.7005502E-001	5.1022804E-001	2.5966794E+000	1.9223731E-002	1.000000000000000E+000	11	1.0043533E-002	2.7220158E-005	0	1.889561469451712E-003	2.7001665E-003	2.3319207E-004	2.7102174E-003	4.9359369E+000	1.9223726E+001	2.2259451E+002	2.2342307E+002	-8.5064064E+001	0.0000000E+000	0.0000000E+000	0.0000000E+000	8.5064064E+001	0.0000000E+000	0.0000000E+000	0.0000000E+000	-8.5064064E+001	0.0000000E+000	0.0000000E+000	0.0000000E+000	-4.9359369E+000	0.0000000E+000	0.0000000E+000	0.0000000E+000	4.9359369E+000	1.1579153E+001	8.5064064E+001	1.304044364154654E-004
1.3886667E+003	3.6959256E+002	2.7634974E+001	3.7062427E+002	-4.2761316E+000	02/16/2024 15:31:57.5434	8.7006205E-001	5.0990713E-001	4.1472769E+000	2.3057563E-002	1.000000000000000E+000	11	1.0038842E-002	2.7086304E-005	0	1.987146964454632E-003	2.6906396E-003	2.0118304E-004	2.6981505E-003	4.2761316E+000	2.3057562E+001	3.0837393E+002	3.0923474E+002	-8.5723869E+001	0.0000000E+000	0.0000000E+000	0.0000000E+000	8.5723869E+001	0.0000000E+000	0.0000000E+000	0.0000000E+000	-8.5723869E+001	0.0000000E+000	0.0000000E+000	0.0000000E+000	-4.2761316E+000	0.0000000E+000	0.0000000E+000	0.0000000E+000	4.2761316E+000	1.3374087E+001	8.5723869E+001	9.758549500292024E-005
1.0003202E+003	3.7413007E+002	2.8795422E+001	3.7523657E+002	-4.4011693E+000	02/16/2024 15:31:58.2401	8.7001884E-001	5.0951290E-001	5.5253229E+000	3.2538250E-002	1.000000000000000E+000	11	1.0155886E-002	2.7065289E-005	0	2.084565126831714E-003	2.6571269E-003	2.0450931E-004	2.6649854E-003	4.4011693E+000	3.2538250E+001	4.2275952E+002	4.2400986E+002	-8.5598831E+001	0.0000000E+000	0.0000000E+000	0.0000000E+000	8.5598831E+001	0.0000000E+000	0.0000000E+000	0.0000000E+000	-8.5598831E+001	0.0000000E+000	0.0000000E+000	0.0000000E+000	-4.4011693E+000	0.0000000E+000	0.0000000E+000	0.0000000E+000	4.4011693E+000	1.2992693E+001	8.5598831E+001	9.741816237708242E-005
7.1930957E+002	3.7802032E+002	2.8948959E+001	3.7912717E+002	-4.3791881E+000	02/16/2024 15:31:58.9383	8.7003314E-001	5.0925523E-001	7.6431322E+000	4.4562284E-002	1.000000000000000E+000	11	1.0185740E-002	2.6866290E-005	0	2.182176275438700E-003	2.6299369E-003	2.0140169E-004	2.6376373E-003	4.3791881E+000	4.4562290E+001	5.8190173E+002	5.8360553E+002	-8.5620811E+001	0.0000000E+000	0.0000000E+000	0.0000000E+000	8.5620811E+001	0.0000000E+000	0.0000000E+000	0.0000000E+000	-8.5620811E+001	0.0000000E+000	0.0000000E+000	0.0000000E+000	-4.3791881E+000	0.0000000E+000	0.0000000E+000	0.0000000E+000	4.3791881E+000	1.3058167E+001	8.5620811E+001	9.761114860698571E-005
5.1817603E+002	3.8148508E+002	3.1825544E+001	3.8281030E+002	-4.7688804E+000	02/16/2024 15:31:59.6378	8.7005663E-001	5.0887352E-001	9.6508818E+000	6.6703930E-002	1.000000000000000E+000	11	1.0156754E-002	2.6532083E-005	0	2.279776095763395E-003	2.6032168E-003	2.1717440E-004	2.6122599E-003	4.7688804E+000	6.6703964E+001	7.9956378E+002	8.0234137E+002	-8.5231117E+001	0.0000000E+000	0.0000000E+000	0.0000000E+000	8.5231117E+001	0.0000000E+000	0.0000000E+000	0.0000000E+000	-8.5231117E+001	0.0000000E+000	0.0000000E+000	0.0000000E+000	-4.7688804E+000	0.0000000E+000	0.0000000E+000	0.0000000E+000	4.7688804E+000	1.1986757E+001	8.5231117E+001	9.759982032469519E-005
3.7273376E+002	3.8867502E+002	3.4954861E+001	3.9024365E+002	-5.1389790E+000	02/16/2024 15:32:00.3374	8.7005717E-001	5.0855619E-001	1.2215571E+001	9.8007038E-002	1.000000000000000E+000	11	1.0207534E-002	2.6156822E-005	0	2.377532542475037E-003	2.5522013E-003	2.2952813E-004	2.5625017E-003	5.1389790E+000	9.8007011E+001	1.0897737E+003	1.0941719E+003	-8.4861023E+001	0.0000000E+000	0.0000000E+000	0.0000000E+000	8.4861023E+001	0.0000000E+000	0.0000000E+000	0.0000000E+000	-8.4861023E+001	0.0000000E+000	0.0000000E+000	0.0000000E+000	-5.1389790E+000	0.0000000E+000	0.0000000E+000	0.0000000E+000	5.1389790E+000	1.1119341E+001	8.4861023E+001	9.775644671164126E-005
2.6836835E+002	3.9503616E+002	3.8714523E+001	3.9692868E+002	-5.5972548E+000	02/16/2024 15:32:01.0384	8.7004828E-001	5.0836593E-001	1.5318453E+001	1.4572626E-001	1.000000000000000E+000	11	1.0183938E-002	2.5656846E-005	0	2.475106262955750E-003	2.5073322E-003	2.4572478E-004	2.5193442E-003	5.5972548E+000	1.4572618E+002	1.4869650E+003	1.4940886E+003	-8.4402748E+001	0.0000000E+000	0.0000000E+000	0.0000000E+000	8.4402748E+001	0.0000000E+000	0.0000000E+000	0.0000000E+000	-8.4402748E+001	0.0000000E+000	0.0000000E+000	0.0000000E+000	-5.5972548E+000	0.0000000E+000	0.0000000E+000	0.0000000E+000	5.5972548E+000	1.0203823E+001	8.4402748E+001	9.757372048071339E-005
