EC-Lab ASCII FILE
Nb header lines : 65                          

Potentio Electrochemical Impedance Spectroscopy

Run on channel : 1 (SN 6813)
User : 
CE vs. WE compliance from -10 V to 10 V
Electrode connection : standard
Potential control : Ewe
Ewe ctrl range : min = -1.00 V, max = 1.00 V
Safety Limits :
	Do not start on E overload
Acquisition started on : 02/16/2024 15:35:02.540
Technique started on : 02/16/2024 15:35:03.711
Loaded Setting File :  NONE
Saved on :
	File : 14 2EL413 RVC EtOH TBA-BF4_(under Ar) solidstateref+faradaiccage EIS 0-8.mpr
	Directory : C:\Users\VSP\Documents\EC-Lab\Data\Louis\2024 02 16\
	Host : 10.10.11.222
Device : VSP (SN 0301)
Address : USB
EC-Lab for windows v11.50 (software)
Internet server v11.50 (firmware)
Command interpretor v11.50 (firmware)
Electrode material : 
Initial state : 
Electrolyte : 
Comments : 
Current amplifier : Low Current
Electrode surface area : 0.001 cm²
Characteristic mass : 0.001 g
Equivalent Weight : 0.000 g/eq.
Density : 0.000 g/cm3
Volume (V) : 0.001 cm³
Cycle Definition : Charge/Discharge alternance
Mode                Single sine         
E (V)               0.8000              
vs.                 Eoc                 
tE (h:m:s)          0:00:0.0000         
record              0                   
dI                  0.000               
unit dI             mA                  
dt (s)              0.000               
fi                  1.000               
unit fi             MHz                 
ff                  0.100               
unit ff             Hz                  
Nd                  50                  
Points              from fi to ff       
spacing             Logarithmic         
Va (mV)             10.0                
pw                  0.10                
Na                  3                   
corr                0                   
E range min (V)     -1.000              
E range max (V)     1.000               
I Range             Auto                
Bandwidth           4                   
nc cycles           0                   
goto Ns'            0                   
nr cycles           0                   
inc. cycle          0                   

freq/Hz	Re(Z)/Ohm	-Im(Z)/Ohm	|Z|/Ohm	Phase(Z)/deg	time/s	<Ewe>/V	<I>/mA	Cs/µF	Cp/µF	cycle number	I Range	|Ewe|/V	|I|/A	Ns	(Q-Qo)/mA.h	Re(Y)/Ohm-1	Im(Y)/Ohm-1	|Y|/Ohm-1	Phase(Y)/deg	Re(C)/nF	Im(C)/nF	|C|/nF	Phase(C)/deg	Re(M)	Im(M)	|M|	Phase(M)/deg	Re(Permittivity)	Im(Permittivity)	|Permittivity|	Phase(Permittivity)/deg	Re(Resistivity)/Ohm.cm	Im(Resistivity)/Ohm.cm	|Resistivity|/Ohm.cm	Phase(Resistivity)/deg	Re(Conductivity)/mS/cm	Im(Conductivity)/mS/cm	|Conductivity|/mS/cm	Phase(Conductivity)/deg	Tan(Delta)	Loss Angle(Delta)/deg	dq/mA.h	
1.0000186E+006	-3.1326526E+002	-1.1385765E+002	3.3331470E+002	1.6002611E+002	02/16/2024 15:35:03.7107	8.9329970E-001	5.4314202E-001	-1.3978155E-003	-1.6310428E-004	1.000000000000000E+000	12	1.1515638E-003	3.4548848E-006	0	1.245945644811727E-004	-2.8197027E-003	-1.0248331E-003	3.0001677E-003	-1.6002611E+002	-1.6310422E-001	-4.4876131E-001	4.7748268E-001	1.0997389E+002	0.0000000E+000	0.0000000E+000	0.0000000E+000	-1.0997389E+002	0.0000000E+000	0.0000000E+000	0.0000000E+000	1.0997389E+002	0.0000000E+000	0.0000000E+000	0.0000000E+000	1.6002611E+002	0.0000000E+000	0.0000000E+000	0.0000000E+000	-1.6002611E+002	2.7513764E+000	7.0026108E+001	1.245945644811727E-004
7.1968713E+005	-2.2549420E+002	3.7715112E+002	4.3942075E+002	-1.2087470E+002	02/16/2024 15:35:04.2897	8.9373791E-001	5.4331058E-001	5.8635545E-004	4.3194724E-004	1.000000000000000E+000	12	1.2796493E-003	2.9121277E-006	0	2.104587195538204E-004	-1.1678155E-003	1.9532340E-003	2.2757233E-003	1.2087470E+002	4.3194726E-001	-2.5825614E-001	5.0326401E-001	3.0874702E+001	0.0000000E+000	0.0000000E+000	0.0000000E+000	-3.0874702E+001	0.0000000E+000	0.0000000E+000	0.0000000E+000	3.0874702E+001	0.0000000E+000	0.0000000E+000	0.0000000E+000	-1.2087470E+002	0.0000000E+000	0.0000000E+000	0.0000000E+000	1.2087470E+002	5.9788817E-001	3.0874695E+001	8.586415507264771E-005
5.1794463E+005	4.5309025E+001	1.5345998E+002	1.6000897E+002	-7.3550774E+001	02/16/2024 15:35:05.8527	8.9396888E-001	5.4339588E-001	2.0023577E-003	1.8418034E-003	1.000000000000000E+000	11	2.4579386E-003	1.5361255E-005	0	4.306257046798289E-004	1.7696855E-003	5.9938580E-003	6.2496495E-003	7.3550774E+001	1.8418033E+000	5.4379207E-001	1.9204034E+000	-1.6449226E+001	0.0000000E+000	0.0000000E+000	0.0000000E+000	1.6449226E+001	0.0000000E+000	0.0000000E+000	0.0000000E+000	-1.6449226E+001	0.0000000E+000	0.0000000E+000	0.0000000E+000	-7.3550774E+001	0.0000000E+000	0.0000000E+000	0.0000000E+000	7.3550774E+001	2.9524979E-001	1.6449219E+001	2.201669851260085E-004
3.7276388E+005	8.6075027E+001	1.2049859E+002	1.4808383E+002	-5.4460873E+001	02/16/2024 15:35:06.4317	8.9391220E-001	5.4258579E-001	3.5432710E-003	2.3461350E-003	1.000000000000000E+000	11	3.9067967E-003	2.6382331E-005	0	5.162791827940931E-004	3.9252006E-003	5.4949871E-003	6.7529315E-003	5.4460873E+001	2.3461351E+000	1.6759003E+000	2.8832259E+000	-3.5539127E+001	0.0000000E+000	0.0000000E+000	0.0000000E+000	3.5539127E+001	0.0000000E+000	0.0000000E+000	0.0000000E+000	-3.5539127E+001	0.0000000E+000	0.0000000E+000	0.0000000E+000	-5.4460873E+001	0.0000000E+000	0.0000000E+000	0.0000000E+000	5.4460873E+001	7.1432394E-001	3.5539124E+001	8.565347811426420E-005
2.6826938E+005	9.6516502E+001	1.0185157E+002	1.4031813E+002	-4.6540588E+001	02/16/2024 15:35:07.0107	8.9378762E-001	5.4170334E-001	5.8248034E-003	3.0689454E-003	1.000000000000000E+000	11	5.7648276E-003	4.1083982E-005	0	6.019784591000417E-004	4.9020075E-003	5.1729726E-003	7.1266629E-003	4.6540588E+001	3.0689456E+000	2.9081917E+000	4.2280025E+000	-4.3459412E+001	0.0000000E+000	0.0000000E+000	0.0000000E+000	4.3459412E+001	0.0000000E+000	0.0000000E+000	0.0000000E+000	-4.3459412E+001	0.0000000E+000	0.0000000E+000	0.0000000E+000	-4.6540588E+001	0.0000000E+000	0.0000000E+000	0.0000000E+000	4.6540588E+001	9.4761920E-001	4.3459412E+001	8.569927630594856E-005
1.9306711E+005	1.0612093E+002	9.5613121E+001	1.4284090E+002	-4.2018303E+001	02/16/2024 15:35:07.5897	8.9374799E-001	5.4162139E-001	8.6217290E-003	3.8629957E-003	1.000000000000000E+000	11	8.7227514E-003	6.1066203E-005	0	6.877864556232687E-004	5.2011088E-003	4.6861088E-003	7.0007960E-003	4.2018303E+001	3.8629956E+000	4.2875361E+000	5.7711091E+000	-4.7981697E+001	0.0000000E+000	0.0000000E+000	0.0000000E+000	4.7981697E+001	0.0000000E+000	0.0000000E+000	0.0000000E+000	-4.7981697E+001	0.0000000E+000	0.0000000E+000	0.0000000E+000	-4.2018303E+001	0.0000000E+000	0.0000000E+000	0.0000000E+000	4.2018303E+001	1.1098993E+000	4.7981689E+001	8.580799652322703E-005
1.3894559E+005	1.1819144E+002	9.4846291E+001	1.5154219E+002	-3.8746353E+001	02/16/2024 15:35:08.1687	8.9376479E-001	5.4189509E-001	1.2076887E-002	4.7307345E-003	1.000000000000000E+000	11	1.0258766E-002	6.7695772E-005	0	7.731175776647773E-004	5.1465821E-003	4.1300301E-003	6.5988223E-003	3.8746353E+001	4.7307343E+000	5.8951416E+000	7.5586071E+000	-5.1253647E+001	0.0000000E+000	0.0000000E+000	0.0000000E+000	5.1253647E+001	0.0000000E+000	0.0000000E+000	0.0000000E+000	-5.1253647E+001	0.0000000E+000	0.0000000E+000	0.0000000E+000	-3.8746353E+001	0.0000000E+000	0.0000000E+000	0.0000000E+000	3.8746353E+001	1.2461367E+000	5.1253647E+001	8.533112204150853E-005
1.0000371E+005	1.3234137E+002	9.9493698E+001	1.6556943E+002	-3.6935692E+001	02/16/2024 15:35:08.7477	8.9377779E-001	5.4205674E-001	1.5995890E-002	5.7761609E-003	1.000000000000000E+000	11	1.0606295E-002	6.4059503E-005	0	8.583079445870599E-004	4.8276451E-003	3.6294037E-003	6.0397624E-003	3.6935692E+001	5.7761607E+000	7.6831512E+000	9.6122236E+000	-5.3064308E+001	0.0000000E+000	0.0000000E+000	0.0000000E+000	5.3064308E+001	0.0000000E+000	0.0000000E+000	0.0000000E+000	-5.3064308E+001	0.0000000E+000	0.0000000E+000	0.0000000E+000	-3.6935692E+001	0.0000000E+000	0.0000000E+000	0.0000000E+000	3.6935692E+001	1.3301482E+000	5.3064308E+001	8.519036692228267E-005
7.1964070E+004	1.5051189E+002	1.0674450E+002	1.8452159E+002	-3.5344639E+001	02/16/2024 15:35:09.3257	8.9381868E-001	5.4151344E-001	2.0718528E-002	6.9335480E-003	1.000000000000000E+000	11	1.0673736E-002	5.7845460E-005	0	9.435132499241865E-004	4.4205515E-003	3.1350981E-003	5.4194201E-003	3.5344639E+001	6.9335489E+000	9.7764425E+000	1.1985530E+001	-5.4655361E+001	0.0000000E+000	0.0000000E+000	0.0000000E+000	5.4655361E+001	0.0000000E+000	0.0000000E+000	0.0000000E+000	-5.4655361E+001	0.0000000E+000	0.0000000E+000	0.0000000E+000	-3.5344639E+001	0.0000000E+000	0.0000000E+000	0.0000000E+000	3.5344639E+001	1.4100201E+000	5.4655365E+001	8.520530533712655E-005
5.1792605E+004	1.7186908E+002	1.1825971E+002	2.0862488E+002	-3.4531090E+001	02/16/2024 15:35:09.9047	8.9380783E-001	5.4094899E-001	2.5984572E-002	8.3494335E-003	1.000000000000000E+000	11	1.0622744E-002	5.0917919E-005	0	1.028851482281924E-003	3.9488040E-003	2.7170938E-003	4.7932924E-003	3.4531090E+001	8.3494329E+000	1.2134389E+001	1.4729441E+001	-5.5468910E+001	0.0000000E+000	0.0000000E+000	0.0000000E+000	5.5468910E+001	0.0000000E+000	0.0000000E+000	0.0000000E+000	-5.5468910E+001	0.0000000E+000	0.0000000E+000	0.0000000E+000	-3.4531090E+001	0.0000000E+000	0.0000000E+000	0.0000000E+000	3.4531090E+001	1.4533190E+000	5.5468910E+001	8.533823235773723E-005
3.7271750E+004	2.0540923E+002	1.2765742E+002	2.4184575E+002	-3.1860064E+001	02/16/2024 15:35:10.4827	8.9382839E-001	5.4088420E-001	3.3449858E-002	9.3198624E-003	1.000000000000000E+000	11	1.0766261E-002	4.4517059E-005	0	1.114542345016968E-003	3.5119071E-003	2.1825747E-003	4.1348669E-003	3.1860064E+001	9.3198624E+000	1.4996275E+001	1.7656389E+001	-5.8139938E+001	0.0000000E+000	0.0000000E+000	0.0000000E+000	5.8139938E+001	0.0000000E+000	0.0000000E+000	0.0000000E+000	-5.8139938E+001	0.0000000E+000	0.0000000E+000	0.0000000E+000	-3.1860064E+001	0.0000000E+000	0.0000000E+000	0.0000000E+000	3.1860064E+001	1.6090661E+000	5.8139938E+001	8.569086273504467E-005
2.6824154E+004	2.4176791E+002	1.2885349E+002	2.7396158E+002	-2.8055988E+001	02/16/2024 15:35:11.0617	8.9384079E-001	5.4134673E-001	4.6046641E-002	1.0186171E-002	1.000000000000000E+000	11	1.0702965E-002	3.9067396E-005	0	1.200221899625920E-003	3.2212122E-003	1.7167886E-003	3.6501468E-003	2.8055988E+001	1.0186170E+001	1.9112320E+001	2.1657305E+001	-6.1944012E+001	0.0000000E+000	0.0000000E+000	0.0000000E+000	6.1944012E+001	0.0000000E+000	0.0000000E+000	0.0000000E+000	-6.1944012E+001	0.0000000E+000	0.0000000E+000	0.0000000E+000	-2.8055988E+001	0.0000000E+000	0.0000000E+000	0.0000000E+000	2.8055988E+001	1.8763009E+000	6.1944016E+001	8.567955460895118E-005
1.9308566E+004	2.7787875E+002	1.2022294E+002	3.0277081E+002	-2.3395494E+001	02/16/2024 15:35:11.6407	8.9383191E-001	5.4154468E-001	6.8561889E-002	1.0810093E-002	1.000000000000000E+000	11	1.0597636E-002	3.5002173E-005	0	1.285676340292832E-003	3.0312890E-003	1.3114728E-003	3.3028282E-003	2.3395494E+001	1.0810092E+001	2.4986042E+001	2.7224260E+001	-6.6604507E+001	0.0000000E+000	0.0000000E+000	0.0000000E+000	6.6604507E+001	0.0000000E+000	0.0000000E+000	0.0000000E+000	-6.6604507E+001	0.0000000E+000	0.0000000E+000	0.0000000E+000	-2.3395494E+001	0.0000000E+000	0.0000000E+000	0.0000000E+000	2.3395494E+001	2.3113623E+000	6.6604507E+001	8.545444066691246E-005
1.3899199E+004	3.0966602E+002	1.0436126E+002	3.2677869E+002	-1.8624451E+001	02/16/2024 15:35:12.2197	8.9381325E-001	5.4117072E-001	1.0972133E-001	1.1190828E-002	1.000000000000000E+000	11	1.0497042E-002	3.2122785E-005	0	1.370980753865704E-003	2.8999206E-003	9.7730896E-004	3.0601751E-003	1.8624451E+001	1.1190828E+001	3.3205990E+001	3.5041012E+001	-7.1375549E+001	0.0000000E+000	0.0000000E+000	0.0000000E+000	7.1375549E+001	0.0000000E+000	0.0000000E+000	0.0000000E+000	-7.1375549E+001	0.0000000E+000	0.0000000E+000	0.0000000E+000	-1.8624451E+001	0.0000000E+000	0.0000000E+000	0.0000000E+000	1.8624451E+001	2.9672506E+000	7.1375549E+001	8.530441357287215E-005
1.0002226E+004	3.3203058E+002	8.7361061E+001	3.4333112E+002	-1.4741076E+001	02/16/2024 15:35:12.7987	8.9385086E-001	5.4069453E-001	1.8214011E-001	1.1792749E-002	1.000000000000000E+000	11	1.0341860E-002	3.0122117E-005	0	1.456635312772767E-003	2.8167723E-003	7.4112514E-004	2.9126401E-003	1.4741076E+001	1.1792747E+001	4.4820351E+001	4.6345795E+001	-7.5258926E+001	0.0000000E+000	0.0000000E+000	0.0000000E+000	7.5258926E+001	0.0000000E+000	0.0000000E+000	0.0000000E+000	-7.5258926E+001	0.0000000E+000	0.0000000E+000	0.0000000E+000	-1.4741076E+001	0.0000000E+000	0.0000000E+000	0.0000000E+000	1.4741076E+001	3.8006701E+000	7.5258926E+001	8.565455890706245E-005
7.1953535E+003	3.4543500E+002	7.0688110E+001	3.5259344E+002	-1.1565059E+001	02/16/2024 15:35:13.5086	8.9383352E-001	5.4104102E-001	3.1291157E-001	1.2576677E-002	1.000000000000000E+000	11	1.0203436E-002	2.8938246E-005	0	1.560983740214702E-003	2.7785476E-003	5.6858826E-004	2.8361275E-003	1.1565059E+001	1.2576674E+001	6.1459049E+001	6.2732666E+001	-7.8434944E+001	0.0000000E+000	0.0000000E+000	0.0000000E+000	7.8434944E+001	0.0000000E+000	0.0000000E+000	0.0000000E+000	-7.8434944E+001	0.0000000E+000	0.0000000E+000	0.0000000E+000	-1.1565059E+001	0.0000000E+000	0.0000000E+000	0.0000000E+000	1.1565059E+001	4.8867483E+000	7.8434944E+001	1.043484274419349E-004
5.1814517E+003	3.5392618E+002	5.5264515E+001	3.5821487E+002	-8.8748989E+000	02/16/2024 15:35:14.4356	8.9386004E-001	5.4081607E-001	5.5580479E-001	1.3229024E-002	1.000000000000000E+000	11	1.0088103E-002	2.8162156E-005	0	1.698279260882826E-003	2.7581980E-003	4.3068439E-004	2.7916206E-003	8.8748989E+000	1.3229027E+001	8.4721596E+001	8.5748215E+001	-8.1125099E+001	0.0000000E+000	0.0000000E+000	0.0000000E+000	8.1125099E+001	0.0000000E+000	0.0000000E+000	0.0000000E+000	-8.1125099E+001	0.0000000E+000	0.0000000E+000	0.0000000E+000	-8.8748989E+000	0.0000000E+000	0.0000000E+000	0.0000000E+000	8.8748989E+000	6.4042211E+000	8.1125099E+001	1.372955206681249E-004
3.7264229E+003	3.6134634E+002	4.5987541E+001	3.6426096E+002	-7.2528830E+000	02/16/2024 15:35:15.1333	8.9382255E-001	5.4083252E-001	9.2872643E-001	1.4802769E-002	1.000000000000000E+000	11	1.0622839E-002	2.9162717E-005	0	1.801715714894691E-003	2.7233185E-003	3.4658914E-004	2.7452847E-003	7.2528830E+000	1.4802771E+001	1.1631252E+002	1.1725069E+002	-8.2747116E+001	0.0000000E+000	0.0000000E+000	0.0000000E+000	8.2747116E+001	0.0000000E+000	0.0000000E+000	0.0000000E+000	-8.2747116E+001	0.0000000E+000	0.0000000E+000	0.0000000E+000	-7.2528830E+000	0.0000000E+000	0.0000000E+000	0.0000000E+000	7.2528830E+000	7.8574834E+000	8.2747116E+001	1.034364540118647E-004
2.6824250E+003	3.6492627E+002	3.6435795E+001	3.6674072E+002	-5.7017584E+000	02/16/2024 15:35:15.8313	8.9385343E-001	5.4081756E-001	1.6284120E+000	1.6073206E-002	1.000000000000000E+000	11	1.0854742E-002	2.9597866E-005	0	1.905117399717820E-003	2.7132316E-003	2.7090061E-004	2.7267220E-003	5.7017584E+000	1.6073210E+001	1.6098277E+002	1.6178319E+002	-8.4298241E+001	0.0000000E+000	0.0000000E+000	0.0000000E+000	8.4298241E+001	0.0000000E+000	0.0000000E+000	0.0000000E+000	-8.4298241E+001	0.0000000E+000	0.0000000E+000	0.0000000E+000	-5.7017584E+000	0.0000000E+000	0.0000000E+000	0.0000000E+000	5.7017584E+000	1.0015598E+001	8.4298241E+001	1.034016848231291E-004
1.9306176E+003	3.6771945E+002	3.1924334E+001	3.6910263E+002	-4.9618120E+000	02/16/2024 15:35:16.5281	8.9385092E-001	5.4067230E-001	2.5822723E+000	1.9317523E-002	1.000000000000000E+000	11	1.0992278E-002	2.9781089E-005	0	2.008279424243516E-003	2.6991207E-003	2.3432981E-004	2.7092735E-003	4.9618120E+000	1.9317533E+001	2.2250829E+002	2.2334526E+002	-8.5038185E+001	0.0000000E+000	0.0000000E+000	0.0000000E+000	8.5038185E+001	0.0000000E+000	0.0000000E+000	0.0000000E+000	-8.5038185E+001	0.0000000E+000	0.0000000E+000	0.0000000E+000	-4.9618120E+000	0.0000000E+000	0.0000000E+000	0.0000000E+000	4.9618120E+000	1.1518469E+001	8.5038185E+001	1.031620245256959E-004
1.3886667E+003	3.7262506E+002	2.9784943E+001	3.7381357E+002	-4.5700917E+000	02/16/2024 15:35:17.4603	8.9384544E-001	5.4069793E-001	3.8479135E+000	2.4429170E-002	1.000000000000000E+000	11	1.0130327E-002	2.7099946E-005	0	2.146770496034671E-003	2.6666250E-003	2.1315062E-004	2.6751303E-003	4.5700917E+000	2.4429167E+001	3.0562158E+002	3.0659637E+002	-8.5429909E+001	0.0000000E+000	0.0000000E+000	0.0000000E+000	8.5429909E+001	0.0000000E+000	0.0000000E+000	0.0000000E+000	-8.5429909E+001	0.0000000E+000	0.0000000E+000	0.0000000E+000	-4.5700917E+000	0.0000000E+000	0.0000000E+000	0.0000000E+000	4.5700917E+000	1.2510518E+001	8.5429909E+001	1.384910717911552E-004
1.0003202E+003	3.7468988E+002	2.8506100E+001	3.7577267E+002	-4.3506351E+000	02/16/2024 15:35:18.1571	8.9383966E-001	5.4062712E-001	5.5814018E+000	3.2119479E-002	1.000000000000000E+000	11	1.0141538E-002	2.6988493E-005	0	2.250142044395997E-003	2.6535152E-003	2.0187726E-004	2.6611835E-003	4.3506351E+000	3.2119457E+001	4.2218488E+002	4.2340494E+002	-8.5649368E+001	0.0000000E+000	0.0000000E+000	0.0000000E+000	8.5649368E+001	0.0000000E+000	0.0000000E+000	0.0000000E+000	-8.5649368E+001	0.0000000E+000	0.0000000E+000	0.0000000E+000	-4.3506351E+000	0.0000000E+000	0.0000000E+000	0.0000000E+000	4.3506351E+000	1.3144200E+001	8.5649368E+001	1.033715483613261E-004
7.1930957E+002	3.7868533E+002	2.9728710E+001	3.7985046E+002	-4.4888015E+000	02/16/2024 15:35:18.8553	8.9382380E-001	5.4057622E-001	7.4426608E+000	4.5588475E-002	1.000000000000000E+000	11	1.0159185E-002	2.6745221E-005	0	2.353589485239237E-003	2.6245397E-003	2.0603962E-004	2.6326149E-003	4.4888015E+000	4.5588459E+001	5.8070752E+002	5.8249426E+002	-8.5511200E+001	0.0000000E+000	0.0000000E+000	0.0000000E+000	8.5511200E+001	0.0000000E+000	0.0000000E+000	0.0000000E+000	-8.5511200E+001	0.0000000E+000	0.0000000E+000	0.0000000E+000	-4.4888015E+000	0.0000000E+000	0.0000000E+000	0.0000000E+000	4.4888015E+000	1.2738034E+001	8.5511200E+001	1.034474408432400E-004
5.1817603E+002	3.8415051E+002	3.0794720E+001	3.8538284E+002	-4.5832100E+000	02/16/2024 15:35:19.5549	8.9386684E-001	5.4048884E-001	9.9739361E+000	6.3684583E-002	1.000000000000000E+000	11	1.0180544E-002	2.6416703E-005	0	2.457149298518107E-003	2.5865249E-003	2.0734401E-004	2.5948223E-003	4.5832100E+000	6.3684528E+001	7.9443707E+002	7.9698553E+002	-8.5416794E+001	0.0000000E+000	0.0000000E+000	0.0000000E+000	8.5416794E+001	0.0000000E+000	0.0000000E+000	0.0000000E+000	-8.5416794E+001	0.0000000E+000	0.0000000E+000	0.0000000E+000	-4.5832100E+000	0.0000000E+000	0.0000000E+000	0.0000000E+000	4.5832100E+000	1.2474558E+001	8.5416794E+001	1.035598132788696E-004
3.7273376E+002	3.9118365E+002	3.5787392E+001	3.9281726E+002	-5.2271471E+000	02/16/2024 15:35:20.2544	8.9383698E-001	5.4051852E-001	1.1931398E+001	9.9030808E-002	1.000000000000000E+000	11	1.0208840E-002	2.5988775E-005	0	2.560933948389267E-003	2.5351262E-003	2.3192572E-004	2.5457130E-003	5.2271471E+000	9.9030853E+001	1.0824827E+003	1.0870032E+003	-8.4772850E+001	0.0000000E+000	0.0000000E+000	0.0000000E+000	8.4772850E+001	0.0000000E+000	0.0000000E+000	0.0000000E+000	-8.4772850E+001	0.0000000E+000	0.0000000E+000	0.0000000E+000	-5.2271471E+000	0.0000000E+000	0.0000000E+000	0.0000000E+000	5.2271471E+000	1.0930767E+001	8.4772850E+001	1.037846498711604E-004
2.6836835E+002	3.9786237E+002	3.8516376E+001	3.9972238E+002	-5.5294757E+000	02/16/2024 15:35:20.9554	8.9385045E-001	5.4048300E-001	1.5397260E+001	1.4296092E-001	1.000000000000000E+000	11	1.0188548E-002	2.5489060E-005	0	2.664840904678787E-003	2.4900953E-003	2.4106186E-004	2.5017364E-003	5.5294757E+000	1.4296083E+002	1.4767424E+003	1.4836462E+003	-8.4470528E+001	0.0000000E+000	0.0000000E+000	0.0000000E+000	8.4470528E+001	0.0000000E+000	0.0000000E+000	0.0000000E+000	-8.4470528E+001	0.0000000E+000	0.0000000E+000	0.0000000E+000	-5.5294757E+000	0.0000000E+000	0.0000000E+000	0.0000000E+000	5.5294757E+000	1.0329694E+001	8.4470528E+001	1.039069562895198E-004
